;   Message Number
;   |         Time Offset (ms)
;   |         |        Type
;   |         |        |        ID (hex)
;   |         |        |        |     Data Length Code
;   |         |        |        |     |   Data Bytes (hex) ...
;   |         |        |        |     |   |
;---+--   ----+----  --+--  ----+---  +  -+ -- -- -- -- -- -- --
     1)         1.4  Rx         0345  8  00 C0 00 00 00 00 00 00 
     2)         1.5  Rx         0344  4  FF 6C FF FF 
     3)         5.2  Rx         0210  7  FF FF 30 20 90 00 7B 
     4)         5.5  Rx         04B0  8  27 10 27 10 27 10 27 10 
     5)         6.4  Rx         0460  8  03 E0 00 00 00 00 00 00 
     6)         6.7  Rx         0310  3  02 00 00 
     7)        19.2  Rx         0210  7  FF FF 30 20 90 00 7C 
     8)        19.5  Rx         04B0  8  27 10 27 10 27 10 27 10 
     9)        26.7  Rx         0359  8  18 00 00 86 00 00 00 00 
    10)        33.2  Rx         0210  7  FF FF 30 20 90 00 7D 
    11)        33.5  Rx         04B0  8  27 10 27 10 27 10 27 10 
    12)        42.8  Rx         0250  8  08 00 40 00 00 00 00 00 
    13)        43.3  Rx         0441  8  00 00 00 00 00 00 00 00 
    14)        47.2  Rx         0210  7  FF FF 30 20 90 00 7E 
    15)        47.5  Rx         04B0  8  27 10 27 10 27 10 27 10 
    16)        48.6  Rx         0045  8  40 00 82 00 00 00 00 00 
    17)        61.3  Rx         0210  7  FF FF 30 20 90 00 7F 
    18)        61.5  Rx         04B0  8  27 10 27 10 27 10 27 10 
    19)        62.8  Rx         0442  8  00 00 00 00 00 00 00 00 
    20)        63.3  Rx         0443  8  00 00 00 00 00 00 00 00 
    21)        63.8  Rx         0444  8  00 00 00 00 00 00 00 00 
    22)        75.3  Rx         0210  7  FF FF 30 20 90 00 80 
    23)        75.5  Rx         04B0  8  27 10 27 10 27 10 27 10 
    24)        78.8  Rx         0495  2  7F 00 
    25)        86.7  Rx         0251  8  40 00 00 00 00 00 00 00 
    26)        89.3  Rx         0210  7  FF FF 30 20 90 00 81 
    27)        89.5  Rx         04B0  8  27 10 27 10 27 10 27 10 
    28)        91.7  Rx         0301  8  00 02 0F 1D 00 64 01 18 
    29)        92.0  Rx         0302  8  00 00 00 00 09 54 08 A2 
    30)        92.2  Rx         0304  8  00 00 00 00 01 22 00 F0 
    31)        92.5  Rx         0305  8  00 00 01 40 00 00 00 80 
    32)        92.7  Rx         0303  8  0F 59 01 F4 06 00 00 00 
    33)        96.8  Rx         0264  8  00 00 01 00 01 01 20 00 
    34)       103.3  Rx         0210  7  FF FF 30 20 90 00 82 
    35)       103.5  Rx         04B0  8  27 10 27 10 27 10 27 10 
    36)       106.0  Rx         0023  1  40 
    37)       106.3  Rx         0460  8  03 E0 00 00 00 00 00 00 
    38)       106.7  Rx         0265  8  FF FF 00 00 00 69 00 00 
    39)       116.6  Rx         0311  2  00 00 
    40)       117.3  Rx         0210  7  FF FF 30 20 90 00 83 
    41)       117.5  Rx         04B0  8  27 10 27 10 27 10 27 10 
    42)       131.3  Rx         0210  7  FF FF 30 20 90 00 84 
    43)       131.5  Rx         04B0  8  27 10 27 10 27 10 27 10 
    44)       143.1  Rx         0250  8  08 00 40 00 00 00 00 00 
    45)       143.6  Rx         0440  8  12 70 09 05 40 00 00 00 
    46)       144.1  Rx         03A0  8  00 00 03 84 00 00 00 03 
    47)       144.9  Rx         0441  8  00 00 00 00 00 00 00 00 
    48)       145.3  Rx         0210  7  FF FF 30 20 90 00 85 
    49)       145.5  Rx         04B0  8  27 10 27 10 27 10 27 10 
    50)       148.5  Rx         0045  8  40 00 82 00 00 00 00 00 
    51)       150.7  Rx         0045  8  40 00 82 00 00 00 00 00 
    52)       159.3  Rx         0210  7  FF FF 30 20 90 00 86 
    53)       159.5  Rx         04B0  8  27 10 27 10 27 10 27 10 
    54)       166.7  Rx         0610  8  06 6F 06 67 1D 18 00 00 
    55)       166.9  Rx         0300  8  02 04 27 00 00 3F 01 00 
    56)       167.2  Rx         0306  8  00 00 00 00 00 00 00 00 
    57)       167.4  Rx         0611  8  06 6D 00 08 E1 E1 E3 E4 
    58)       167.7  Rx         0722  8  00 00 00 00 20 00 00 00 
    59)       167.9  Rx         0723  8  00 00 00 00 20 00 00 00 
    60)       168.2  Rx         0721  8  00 00 00 00 00 00 00 00 
    61)       173.3  Rx         0210  7  FF FF 30 20 90 00 87 
    62)       173.6  Rx         04B0  8  27 10 27 10 27 10 27 10 
    63)       178.7  Rx         0495  2  7F 00 
    64)       186.8  Rx         0251  8  40 00 00 00 00 00 00 00 
    65)       187.3  Rx         0210  7  FF FF 30 20 90 00 88 
    66)       187.6  Rx         04B0  8  27 10 27 10 27 10 27 10 
    67)       196.8  Rx         0265  8  FF FF 00 00 00 69 00 00 
    68)       201.3  Rx         0210  7  FF FF 30 20 90 00 89 
    69)       201.6  Rx         0345  8  00 C0 00 00 00 00 00 00 
    70)       201.8  Rx         0344  4  FF 6C FF FF 
    71)       202.0  Rx         04B0  8  27 10 27 10 27 10 27 10 
    72)       205.9  Rx         0460  8  03 E0 00 00 00 00 00 00 
    73)       206.7  Rx         0310  3  02 00 00 
    74)       215.3  Rx         0210  7  FF FF 30 20 90 00 8A 
    75)       215.6  Rx         04B0  8  27 10 27 10 27 10 27 10 
    76)       226.8  Rx         0359  8  18 00 00 86 00 00 00 00 
    77)       228.4  Rx         0409  8  18 00 00 00 00 00 00 00 
    78)       229.3  Rx         0210  7  FF FF 30 20 90 00 8B 
    79)       229.6  Rx         04B0  8  27 10 27 10 27 10 27 10 
    80)       242.8  Rx         0250  8  08 00 40 00 00 00 00 00 
    81)       243.4  Rx         0210  7  FF FF 30 20 90 00 8C 
    82)       243.6  Rx         04B0  8  27 10 27 10 27 10 27 10 
    83)       248.5  Rx         0045  8  40 00 82 00 00 00 00 00 
    84)       257.4  Rx         0210  7  FF FF 30 20 90 00 8D 
    85)       257.6  Rx         04B0  8  27 10 27 10 27 10 27 10 
    86)       263.1  Rx         0442  8  00 00 00 00 00 00 00 00 
    87)       263.6  Rx         0443  8  00 00 00 00 00 00 00 00 
    88)       264.1  Rx         0444  8  00 00 00 00 00 00 00 00 
    89)       271.4  Rx         0210  7  FF FF 30 20 90 00 8E 
    90)       271.6  Rx         04B0  8  27 10 27 10 27 10 27 10 
    91)       278.7  Rx         0495  2  7F 00 
    92)       285.4  Rx         0210  7  FF FF 30 20 90 00 8F 
    93)       285.6  Rx         04B0  8  27 10 27 10 27 10 27 10 
    94)       286.8  Rx         0251  8  40 00 00 00 00 00 00 00 
    95)       291.7  Rx         0301  8  00 02 0F 1D 00 64 01 18 
    96)       292.0  Rx         0302  8  00 00 00 00 09 54 08 A2 
    97)       292.2  Rx         0304  8  00 00 00 00 01 22 00 F0 
    98)       292.5  Rx         0305  8  00 00 01 40 00 00 00 80 
    99)       292.7  Rx         0303  8  0F 59 01 F4 06 00 00 00 
   100)       296.8  Rx         0263  6  00 00 45 7E 92 00 
   101)       299.4  Rx         0210  7  FF FF 30 20 90 00 90 
   102)       299.6  Rx         04B0  8  27 10 27 10 27 10 27 10 
   103)       303.1  Rx         03A1  8  80 18 00 00 45 00 EB 7E 
   104)       305.7  Rx         0023  1  40 
   105)       305.9  Rx         0460  8  03 E0 00 00 00 00 00 00 
   106)       306.9  Rx         0264  8  00 00 01 00 01 01 20 00 
   107)       313.4  Rx         0210  7  FF FF 30 20 90 00 91 
   108)       313.6  Rx         04B0  8  27 10 27 10 27 10 27 10 
   109)       316.8  Rx         0265  8  FF FF 00 00 00 69 00 00 
   110)       326.7  Rx         0311  2  00 00 
   111)       327.4  Rx         0210  7  FF FF 30 20 90 00 92 
   112)       327.6  Rx         04B0  8  27 10 27 10 27 10 27 10 
   113)       341.4  Rx         0210  7  FF FF 30 20 90 00 93 
   114)       341.7  Rx         04B0  8  27 10 27 10 27 10 27 10 
   115)       343.1  Rx         0250  8  08 00 40 00 00 00 00 00 
   116)       343.5  Rx         0440  8  12 70 09 05 40 00 00 00 
   117)       343.8  Rx         0441  8  00 00 00 00 00 00 00 00 
   118)       348.4  Rx         0045  8  40 00 82 00 00 00 00 00 
   119)       355.4  Rx         0210  7  FF FF 30 20 90 00 94 
   120)       355.7  Rx         04B0  8  27 10 27 10 27 10 27 10 
   121)       366.8  Rx         0610  8  06 6F 06 67 1D 18 00 00 
   122)       367.0  Rx         0611  8  06 6D 00 08 E1 E1 E3 E4 
   123)       369.4  Rx         0210  7  FF FF 30 20 90 00 95 
   124)       369.7  Rx         04B0  8  27 10 27 10 27 10 27 10 
   125)       378.7  Rx         0495  2  7F 00 
   126)       383.4  Rx         0210  7  FF FF 30 20 90 00 96 
   127)       383.7  Rx         04B0  8  27 10 27 10 27 10 27 10 
   128)       386.9  Rx         0251  8  40 00 00 00 00 00 00 00 
   129)       396.9  Rx         0265  8  FF FF 00 00 00 69 00 00 
   130)       397.4  Rx         0210  7  FF FF 30 20 90 00 97 
   131)       397.7  Rx         04B0  8  27 10 27 10 27 10 27 10 
   132)       401.4  Rx         0345  8  00 C0 00 00 00 00 00 00 
   133)       401.5  Rx         0344  4  FF 6C FF FF 
   134)       405.6  Rx         0460  8  03 E0 00 00 00 00 00 00 
   135)       406.8  Rx         0310  3  02 00 00 
   136)       411.5  Rx         0210  7  FF FF 30 20 90 00 98 
   137)       411.7  Rx         04B0  8  27 10 27 10 27 10 27 10 
   138)       425.5  Rx         0210  7  FF FF 30 20 90 00 99 
   139)       425.7  Rx         04B0  8  27 10 27 10 27 10 27 10 
   140)       426.9  Rx         0359  8  18 00 00 86 00 00 00 00 
   141)       439.5  Rx         0210  7  FF FF 30 20 90 00 9A 
   142)       439.7  Rx         04B0  8  27 10 27 10 27 10 27 10 
   143)       443.2  Rx         0250  8  08 00 40 00 00 00 00 00 
   144)       448.2  Rx         0045  8  40 00 82 00 00 00 00 00 
   145)       453.5  Rx         0210  7  FF FF 30 20 90 00 9B 
   146)       453.7  Rx         04B0  8  27 10 27 10 27 10 27 10 
   147)       463.5  Rx         0442  8  00 00 00 00 00 00 00 00 
   148)       464.0  Rx         0443  8  00 00 00 00 00 00 00 00 
   149)       464.5  Rx         0444  8  00 00 00 00 00 00 00 00 
   150)       467.5  Rx         0210  7  FF FF 30 20 90 00 9C 
   151)       467.7  Rx         04B0  8  27 10 27 10 27 10 27 10 
   152)       478.5  Rx         0495  2  7F 00 
   153)       481.4  Rx         0210  7  FF FF 30 20 90 00 9D 
   154)       481.7  Rx         04B0  8  27 10 27 10 27 10 27 10 
   155)       486.8  Rx         0251  8  40 00 00 00 00 00 00 00 
   156)       491.7  Rx         0301  8  00 02 0F 1D 00 64 01 18 
   157)       491.9  Rx         0302  8  00 00 00 00 09 54 08 A2 
   158)       492.1  Rx         0304  8  00 00 00 00 01 22 00 F0 
   159)       492.4  Rx         0305  8  00 00 01 40 00 00 00 80 
   160)       492.6  Rx         0303  8  0F 59 01 F4 06 00 00 00 
   161)       495.4  Rx         0210  7  FF FF 30 20 90 00 9E 
   162)       495.6  Rx         04B0  8  27 10 27 10 27 10 27 10 
   163)       496.8  Rx         0264  8  00 00 01 00 01 01 20 00 
   164)       498.1  Rx         0408  8  0F 02 84 10 80 2F 7F 50 
   165)       498.7  Rx         040B  8  00 00 08 00 00 00 60 00 
   166)       505.1  Rx         0023  1  40 
   167)       505.4  Rx         0460  8  03 E0 00 00 00 00 00 00 
   168)       506.8  Rx         0265  8  FF FF 00 00 00 69 00 00 
   169)       509.4  Rx         0210  7  FF FF 30 20 90 00 9F 
   170)       509.6  Rx         04B0  8  27 10 27 10 27 10 27 10 
   171)       516.7  Rx         0311  2  00 00 
   172)       523.4  Rx         0210  7  FF FF 30 20 90 00 A0 
   173)       523.7  Rx         04B0  8  27 10 27 10 27 10 27 10 
   174)       537.4  Rx         0210  7  FF FF 30 20 90 00 A1 
   175)       537.7  Rx         04B0  8  27 10 27 10 27 10 27 10 
   176)       543.5  Rx         0250  8  08 00 40 00 00 00 00 00 
   177)       544.0  Rx         0440  8  12 70 09 05 40 00 00 00 
   178)       544.5  Rx         0441  8  00 00 00 00 00 00 00 00 
   179)       548.0  Rx         0045  8  40 00 82 00 00 00 00 00 
   180)       550.1  Rx         0045  8  40 00 82 00 00 00 00 00 
   181)       551.4  Rx         0210  7  FF FF 30 20 90 00 A2 
   182)       551.7  Rx         04B0  8  27 10 27 10 27 10 27 10 
   183)       565.4  Rx         0210  7  FF FF 30 20 90 00 A3 
   184)       565.7  Rx         04B0  8  27 10 27 10 27 10 27 10 
   185)       566.7  Rx         0610  8  06 6F 06 67 1D 18 00 00 
   186)       566.9  Rx         0611  8  06 6D 00 08 E1 E1 E3 E4 
   187)       578.5  Rx         0495  2  7F 00 
   188)       579.5  Rx         0210  7  FF FF 30 20 90 00 A4 
   189)       579.7  Rx         04B0  8  27 10 27 10 27 10 27 10 
   190)       586.8  Rx         0251  8  40 00 00 00 00 00 00 00 
   191)       593.5  Rx         0210  7  FF FF 30 20 90 00 A5 
   192)       593.7  Rx         04B0  8  27 10 27 10 27 10 27 10 
   193)       596.8  Rx         0265  8  FF FF 00 00 00 69 00 00 
   194)       601.3  Rx         0345  8  00 C0 00 00 00 00 00 00 
   195)       601.4  Rx         0344  4  FF 6C FF FF 
   196)       605.0  Rx         0460  8  03 E0 00 00 00 00 00 00 
   197)       606.7  Rx         0310  3  02 00 00 
   198)       607.5  Rx         0210  7  FF FF 30 20 90 00 A6 
   199)       607.7  Rx         04B0  8  27 10 27 10 27 10 27 10 
   200)       621.5  Rx         0210  7  FF FF 30 20 90 00 A7 
   201)       621.7  Rx         04B0  8  27 10 27 10 27 10 27 10 
   202)       626.8  Rx         0359  8  18 00 00 86 00 00 00 00 
   203)       635.5  Rx         0210  7  FF FF 30 20 90 00 A8 
   204)       635.7  Rx         04B0  8  27 10 27 10 27 10 27 10 
   205)       643.4  Rx         0250  8  08 00 40 00 00 00 00 00 
   206)       643.9  Rx         03A0  8  00 00 03 84 00 00 00 03 
   207)       644.8  Rx         0441  8  00 00 00 00 00 00 00 00 
   208)       648.0  Rx         0045  8  40 00 82 00 00 00 00 00 
   209)       649.5  Rx         0210  7  FF FF 30 20 90 00 A9 
   210)       649.7  Rx         04B0  8  27 10 27 10 27 10 27 10 
   211)       663.4  Rx         0442  8  00 00 00 00 00 00 00 00 
   212)       663.6  Rx         0210  7  FF FF 30 20 90 00 AA 
   213)       663.8  Rx         04B0  8  27 10 27 10 27 10 27 10 
   214)       664.1  Rx         0443  8  00 00 00 00 00 00 00 00 
   215)       664.5  Rx         0444  8  00 00 00 00 00 00 00 00 
   216)       677.5  Rx         0210  7  FF FF 30 20 90 00 AB 
   217)       677.7  Rx         04B0  8  27 10 27 10 27 10 27 10 
   218)       678.5  Rx         0495  2  7F 00 
   219)       686.9  Rx         0251  8  40 00 00 00 00 00 00 00 
   220)       691.5  Rx         0210  7  FF FF 30 20 90 00 AC 
   221)       691.7  Rx         0301  8  00 03 0F 1D 00 64 01 18 
   222)       692.0  Rx         0302  8  00 00 00 00 09 54 08 A2 
   223)       692.2  Rx         0304  8  00 00 00 00 01 22 00 F0 
   224)       692.5  Rx         0305  8  00 00 01 40 00 00 00 80 
   225)       692.7  Rx         0303  8  0F 59 01 F4 06 00 00 00 
   226)       693.0  Rx         04B0  8  27 10 27 10 27 10 27 10 
   227)       696.9  Rx         0264  8  00 00 01 00 01 01 20 00 
   228)       704.7  Rx         0023  1  40 
   229)       704.9  Rx         0460  8  03 E0 00 00 00 00 00 00 
   230)       705.5  Rx         0210  7  FF FF 30 20 90 00 AD 
   231)       705.8  Rx         04B0  8  27 10 27 10 27 10 27 10 
   232)       706.9  Rx         0265  8  FF FF 00 00 00 69 00 00 
   233)       716.8  Rx         0311  2  00 00 
   234)       719.5  Rx         0210  7  FF FF 30 20 90 00 AE 
   235)       719.8  Rx         04B0  8  27 10 27 10 27 10 27 10 
   236)       728.0  Rx         0409  8  18 00 00 00 00 00 00 00 
   237)       733.5  Rx         0210  7  FF FF 30 20 90 00 AF 
   238)       733.8  Rx         04B0  8  27 10 27 10 27 10 27 10 
   239)       743.5  Rx         0250  8  08 00 40 00 00 00 00 00 
   240)       744.0  Rx         0440  8  12 70 09 05 40 00 00 00 
   241)       747.5  Rx         0210  7  FF FF 30 20 90 00 B0 
   242)       747.8  Rx         04B0  8  27 10 27 10 27 10 27 10 
   243)       748.0  Rx         0045  8  40 00 82 00 00 00 00 00 
   244)       761.5  Rx         0210  7  FF FF 30 20 90 00 B1 
   245)       761.8  Rx         04B0  8  27 10 27 10 27 10 27 10 
   246)       766.7  Rx         0610  8  06 6F 06 67 1D 18 00 00 
   247)       766.9  Rx         0611  8  06 6D 00 08 E1 E1 E3 E4 
   248)       775.6  Rx         0210  7  FF FF 30 20 90 00 B2 
   249)       775.8  Rx         04B0  8  27 10 27 10 27 10 27 10 
   250)       778.4  Rx         0495  2  7F 00 
   251)       786.9  Rx         0251  8  40 00 00 00 00 00 00 00 
   252)       789.6  Rx         0210  7  FF FF 30 20 90 00 B3 
   253)       789.9  Rx         04B0  8  27 10 27 10 27 10 27 10 
   254)       796.9  Rx         0263  6  00 00 45 7E 93 00 
   255)       802.5  Rx         0345  8  00 C0 00 00 00 00 00 00 
   256)       802.7  Rx         0344  4  FF 6C FF FF 
   257)       803.6  Rx         0210  7  FF FF 30 20 90 00 B4 
   258)       803.8  Rx         03A1  8  80 18 00 00 45 00 EB 7E 
   259)       804.1  Rx         04B0  8  27 10 27 10 27 10 27 10 
   260)       804.5  Rx         0460  8  03 E0 00 00 00 00 00 00 
   261)       806.9  Rx         0265  8  FF FE 00 00 00 69 00 00 
   262)       816.8  Rx         0310  3  02 00 00 
   263)       817.6  Rx         0210  7  FF FF 30 20 90 00 B5 
   264)       817.8  Rx         04B0  8  27 10 27 10 27 10 27 10 
   265)       831.6  Rx         0210  7  FF FF 30 20 90 00 B6 
   266)       831.8  Rx         04B0  8  27 10 27 10 27 10 27 10 
   267)       836.9  Rx         0359  8  18 00 00 86 00 00 00 00 
   268)       843.8  Rx         0250  8  08 00 40 00 00 00 00 00 
   269)       844.3  Rx         0441  8  00 00 00 00 00 00 00 00 
   270)       845.6  Rx         0210  7  FF FF 30 20 90 00 B7 
   271)       845.8  Rx         04B0  8  27 10 27 10 27 10 27 10 
   272)       847.8  Rx         0045  8  40 00 82 00 00 00 00 00 
   273)       859.6  Rx         0210  7  FF FF 30 20 90 00 B8 
   274)       859.8  Rx         04B0  8  27 10 27 10 27 10 27 10 
   275)       863.8  Rx         0442  8  00 00 00 00 00 00 00 00 
   276)       864.3  Rx         0443  8  00 00 00 00 00 00 00 00 
   277)       864.8  Rx         0444  8  00 00 00 00 00 00 00 00 
   278)       873.6  Rx         0210  7  FF FF 30 20 90 00 B9 
   279)       873.8  Rx         04B0  8  27 10 27 10 27 10 27 10 
   280)       878.4  Rx         0495  2  7F 00 
   281)       886.9  Rx         0251  8  40 00 00 00 00 00 00 00 
   282)       887.6  Rx         0210  7  FF FF 30 20 90 00 BA 
   283)       887.9  Rx         04B0  8  27 10 27 10 27 10 27 10 
   284)       891.7  Rx         0301  8  00 02 0F 1D 00 64 01 18 
   285)       892.0  Rx         0302  8  00 00 00 00 09 54 08 A2 
   286)       892.2  Rx         0304  8  00 00 00 00 01 22 00 F0 
   287)       892.4  Rx         0305  8  00 00 01 40 00 00 00 80 
   288)       892.7  Rx         0303  8  0F 59 01 F4 06 00 00 00 
   289)       897.0  Rx         0264  8  00 00 01 00 01 01 20 00 
   290)       901.6  Rx         0210  7  FF FF 30 20 90 00 BB 
   291)       901.9  Rx         04B0  8  27 10 27 10 27 10 27 10 
   292)       904.2  Rx         0023  1  40 
   293)       904.7  Rx         0460  8  03 E0 00 00 00 00 00 00 
   294)       906.9  Rx         0265  8  FF FE 00 00 00 69 00 00 
   295)       915.6  Rx         0210  7  FF FF 30 20 90 00 BC 
   296)       915.9  Rx         04B0  8  27 10 27 10 27 10 27 10 
   297)       916.8  Rx         0311  2  00 00 
   298)       929.6  Rx         0210  7  FF FF 30 20 90 00 BD 
   299)       929.9  Rx         04B0  8  27 10 27 10 27 10 27 10 
   300)       943.7  Rx         0210  7  FF FF 30 20 90 00 BE 
   301)       943.9  Rx         04B0  8  27 10 27 10 27 10 27 10 
   302)       944.2  Rx         0250  8  08 00 40 00 00 00 00 00 
   303)       944.7  Rx         0440  8  12 70 09 05 40 00 00 00 
   304)       947.7  Rx         0045  8  40 00 82 00 00 00 00 00 
   305)       949.9  Rx         0045  8  40 00 82 00 00 00 00 00 
   306)       957.7  Rx         0210  7  FF FF 30 20 90 00 BF 
   307)       957.9  Rx         04B0  8  27 10 27 10 27 10 27 10 
   308)       966.7  Rx         0610  8  06 6F 06 67 1D 18 00 00 
   309)       966.9  Rx         0611  8  06 6D 00 08 E1 E1 E3 E4 
   310)       971.7  Rx         0210  7  FF FF 30 20 90 00 C0 
   311)       971.9  Rx         04B0  8  27 10 27 10 27 10 27 10 
   312)       978.4  Rx         0495  2  7F 00 
   313)       985.7  Rx         0210  7  FF FF 30 20 90 00 C1 
   314)       985.9  Rx         04B0  8  27 10 27 10 27 10 27 10 
   315)       987.0  Rx         0251  8  40 00 00 00 00 00 00 00 
   316)       997.0  Rx         0265  8  FF FF 00 00 00 69 00 00 
   317)       997.5  Rx         0408  8  0F 02 84 10 80 2F 7F 50 
   318)       998.2  Rx         040B  8  00 00 08 00 00 00 60 00 
   319)       999.7  Rx         0210  7  FF FF 30 20 90 00 C2 
   320)       999.9  Rx         04B0  8  27 10 27 10 27 10 27 10 
   321)      1001.3  Rx         0345  8  00 C0 00 00 00 00 00 00 
   322)      1001.4  Rx         0344  4  FF 6C FF FF 
   323)      1004.2  Rx         0460  8  03 E0 00 00 00 00 00 00 
   324)      1006.9  Rx         0310  3  02 00 00 
   325)      1013.7  Rx         0210  7  FF FF 30 20 90 00 C3 
   326)      1013.9  Rx         04B0  8  27 10 27 10 27 10 27 10 
   327)      1027.0  Rx         0359  8  18 00 00 86 00 00 00 00 
   328)      1027.7  Rx         0210  7  FF FF 30 20 90 00 C4 
   329)      1027.9  Rx         04B0  8  27 10 27 10 27 10 27 10 
   330)      1041.7  Rx         0210  7  FF FF 30 20 90 00 C5 
   331)      1041.9  Rx         04B0  8  27 10 27 10 27 10 27 10 
   332)      1044.1  Rx         0250  8  08 00 40 00 00 00 00 00 
   333)      1044.7  Rx         0441  8  00 00 00 00 00 00 00 00 
   334)      1047.6  Rx         0045  8  40 00 82 00 00 00 00 00 
   335)      1055.7  Rx         0210  7  FF FF 30 20 90 00 C6 
   336)      1056.0  Rx         04B0  8  27 10 27 10 27 10 27 10 
   337)      1064.0  Rx         0442  8  00 00 00 00 00 00 00 00 
   338)      1064.5  Rx         0443  8  00 00 00 00 00 00 00 00 
   339)      1065.1  Rx         0444  8  00 00 00 00 00 00 00 00 
   340)      1069.7  Rx         0210  7  FF FF 30 20 90 00 C7 
   341)      1070.0  Rx         04B0  8  27 10 27 10 27 10 27 10 
   342)      1078.3  Rx         0495  2  7F 00 
   343)      1083.7  Rx         0210  7  FF FF 30 20 90 00 C8 
   344)      1084.0  Rx         04B0  8  27 10 27 10 27 10 27 10 
   345)      1087.0  Rx         0251  8  40 00 00 00 00 00 00 00 
   346)      1091.7  Rx         0301  8  00 02 0F 1D 00 64 01 18 
   347)      1092.0  Rx         0302  8  00 00 00 00 09 54 08 A2 
   348)      1092.2  Rx         0304  8  00 00 00 00 01 22 00 F0 
   349)      1092.4  Rx         0305  8  00 00 01 40 00 00 00 80 
   350)      1092.7  Rx         0303  8  0F 59 01 F4 06 00 00 00 
   351)      1097.0  Rx         0264  8  00 00 01 00 01 01 20 00 
   352)      1097.7  Rx         0210  7  FF FF 30 20 90 00 C9 
   353)      1098.0  Rx         04B0  8  27 10 27 10 27 10 27 10 
   354)      1103.8  Rx         0023  1  40 
   355)      1104.2  Rx         0460  8  03 E0 00 00 00 00 00 00 
   356)      1107.0  Rx         0265  8  FF FF 00 00 00 69 00 00 
   357)      1111.7  Rx         0210  7  FF FF 30 20 90 00 CA 
   358)      1112.0  Rx         04B0  8  27 10 27 10 27 10 27 10 
   359)      1116.9  Rx         0311  2  00 00 
   360)      1125.8  Rx         0210  7  FF FF 30 20 90 00 CB 
   361)      1126.0  Rx         04B0  8  27 10 27 10 27 10 27 10 
   362)      1139.8  Rx         0210  7  FF FF 30 20 90 00 CC 
   363)      1140.0  Rx         04B0  8  27 10 27 10 27 10 27 10 
   364)      1144.5  Rx         0250  8  08 00 40 00 00 00 00 00 
   365)      1145.0  Rx         0440  8  12 70 09 05 40 00 00 00 
   366)      1145.4  Rx         03A0  8  00 00 03 84 00 00 00 03 
   367)      1146.3  Rx         0441  8  00 00 00 00 00 00 00 00 
   368)      1147.4  Rx         0045  8  40 00 82 00 00 00 00 00 
   369)      1153.8  Rx         0210  7  FF FF 30 20 90 00 CD 
   370)      1154.0  Rx         04B0  8  27 10 27 10 27 10 27 10 
   371)      1166.7  Rx         0610  8  06 6F 06 67 1D 18 00 00 
   372)      1167.0  Rx         0300  8  02 04 27 00 00 3F 01 00 
   373)      1167.2  Rx         0306  8  00 00 00 00 00 00 00 00 
   374)      1167.5  Rx         0611  8  06 6D 00 08 E1 E1 E3 E4 
   375)      1167.7  Rx         0722  8  00 00 00 00 20 00 00 00 
   376)      1167.9  Rx         0210  7  FF FF 30 20 90 00 CE 
   377)      1168.2  Rx         04B0  8  27 10 27 10 27 10 27 10 
   378)      1168.4  Rx         0723  8  00 00 00 00 20 00 00 00 
   379)      1168.6  Rx         0721  8  00 00 00 00 00 00 00 00 
   380)      1178.3  Rx         0495  2  7F 00 
   381)      1181.8  Rx         0210  7  FF FF 30 20 90 00 CF 
   382)      1182.0  Rx         04B0  8  27 10 27 10 27 10 27 10 
   383)      1187.0  Rx         0251  8  40 00 00 00 00 00 00 00 
   384)      1195.8  Rx         0210  7  FF FF 30 20 90 00 D0 
   385)      1196.0  Rx         04B0  8  27 10 27 10 27 10 27 10 
   386)      1197.0  Rx         0265  8  FF FF 00 00 00 69 00 00 
   387)      1201.3  Rx         0345  8  00 C0 00 00 00 00 00 00 
   388)      1201.4  Rx         0344  4  FF 6C FF FF 
   389)      1203.8  Rx         0460  8  03 E0 00 00 00 00 00 00 
   390)      1207.0  Rx         0310  3  02 00 00 
   391)      1209.8  Rx         0210  7  FF FF 30 20 90 00 D1 
   392)      1210.1  Rx         04B0  8  27 10 27 10 27 10 27 10 
   393)      1223.8  Rx         0210  7  FF FF 30 20 90 00 D2 
   394)      1224.0  Rx         04B0  8  27 10 27 10 27 10 27 10 
   395)      1227.1  Rx         0359  8  18 00 00 86 00 00 00 00 
   396)      1227.4  Rx         0409  8  18 00 00 00 00 00 00 00 
   397)      1237.8  Rx         0210  7  FF FF 30 20 90 00 D3 
   398)      1238.1  Rx         04B0  8  27 10 27 10 27 10 27 10 
   399)      1244.2  Rx         0250  8  08 00 40 00 00 00 00 00 
   400)      1247.5  Rx         0045  8  40 00 82 00 00 00 00 00 
   401)      1251.8  Rx         0210  7  FF FF 30 20 90 00 D4 
   402)      1252.1  Rx         04B0  8  27 10 27 10 27 10 27 10 
   403)      1264.3  Rx         0442  8  00 00 00 00 00 00 00 00 
   404)      1264.9  Rx         0443  8  00 00 00 00 00 00 00 00 
   405)      1265.4  Rx         0444  8  00 00 00 00 00 00 00 00 
   406)      1265.8  Rx         0210  7  FF FF 30 20 90 00 D5 
   407)      1266.1  Rx         04B0  8  27 10 27 10 27 10 27 10 
   408)      1266.8  Rx         030E  8  35 31 35 31 37 34 30 45 
   409)      1267.0  Rx         030F  8  30 30 30 30 30 35 36 33 
   410)      1278.3  Rx         0495  2  7F 00 
   411)      1279.8  Rx         0210  7  FF FF 30 20 90 00 D6 
   412)      1280.1  Rx         04B0  8  27 10 27 10 27 10 27 10 
   413)      1287.1  Rx         0251  8  40 00 00 00 00 00 00 00 
   414)      1291.7  Rx         0301  8  00 03 0F 1D 00 64 01 18 
   415)      1292.0  Rx         0302  8  00 00 00 00 09 54 08 A2 
   416)      1292.3  Rx         0304  8  00 00 00 00 01 22 00 F0 
   417)      1292.5  Rx         0305  8  00 00 01 40 00 00 00 80 
   418)      1292.7  Rx         0303  8  0F 59 01 F4 06 00 00 00 
   419)      1293.9  Rx         0210  7  FF FF 30 20 90 00 D7 
   420)      1294.1  Rx         04B0  8  27 10 27 10 27 10 27 10 
   421)      1297.0  Rx         0263  6  00 00 45 7E 94 00 
   422)      1303.5  Rx         0023  1  40 
   423)      1303.8  Rx         0460  8  03 E0 00 00 00 00 00 00 
   424)      1304.6  Rx         03A1  8  80 18 00 00 45 00 EB 7E 
   425)      1307.1  Rx         0264  8  00 00 01 00 01 01 20 00 
   426)      1307.9  Rx         0210  7  FF FF 30 20 90 00 D8 
   427)      1308.1  Rx         04B0  8  27 10 27 10 27 10 27 10 
   428)      1317.1  Rx         0265  8  FF FF 00 00 00 69 00 00 
   429)      1321.9  Rx         0210  7  FF FF 30 20 90 00 D9 
   430)      1322.1  Rx         04B0  8  27 10 27 10 27 10 27 10 
   431)      1327.0  Rx         0311  2  00 00 
   432)      1335.9  Rx         0210  7  FF FF 30 20 90 00 DA 
   433)      1336.1  Rx         04B0  8  27 10 27 10 27 10 27 10 
   434)      1344.6  Rx         0250  8  08 00 40 00 00 00 00 00 
   435)      1345.1  Rx         0440  8  12 70 09 05 40 00 00 00 
   436)      1345.9  Rx         0441  8  00 00 00 00 00 00 00 00 
   437)      1347.4  Rx         0045  8  40 00 82 00 00 00 00 00 
   438)      1349.5  Rx         0045  8  40 00 82 00 00 00 00 00 
   439)      1349.9  Rx         0210  7  FF FF 30 20 90 00 DB 
   440)      1350.1  Rx         04B0  8  27 10 27 10 27 10 27 10 
   441)      1363.9  Rx         0210  7  FF FF 30 20 90 00 DC 
   442)      1364.1  Rx         04B0  8  27 10 27 10 27 10 27 10 
   443)      1366.8  Rx         0610  8  06 6F 06 67 1D 18 00 00 
   444)      1367.0  Rx         0611  8  06 6D 00 08 E1 E1 E3 E4 
   445)      1377.9  Rx         0210  7  FF FF 30 20 90 00 DD 
   446)      1378.1  Rx         04B0  8  27 10 27 10 27 10 27 10 
   447)      1378.3  Rx         0495  2  7F 00 
   448)      1387.5  Rx         0251  8  40 00 00 00 00 00 00 00 
   449)      1391.9  Rx         0210  7  FF FF 30 20 90 00 DE 
   450)      1392.1  Rx         04B0  8  27 10 27 10 27 10 27 10 
   451)      1397.4  Rx         0265  8  FF FE 00 00 00 69 00 00 
   452)      1401.3  Rx         0345  8  00 C0 00 00 00 00 00 00 
   453)      1401.6  Rx         0344  4  FF 6C FF FF 
   454)      1403.4  Rx         0460  8  03 E0 00 00 00 00 00 00 
   455)      1405.9  Rx         0210  7  FF FF 30 20 90 00 DF 
   456)      1406.1  Rx         04B0  8  27 10 27 10 27 10 27 10 
   457)      1407.4  Rx         0310  3  02 00 04 
   458)      1419.9  Rx         0210  7  FF FF 30 20 90 00 E0 
   459)      1420.2  Rx         04B0  8  27 10 27 10 27 10 27 10 
   460)      1427.4  Rx         0359  8  18 00 00 86 00 00 00 00 
   461)      1433.9  Rx         0210  7  FF FF 30 20 90 00 E1 
   462)      1434.2  Rx         04B0  8  27 10 27 10 27 10 27 10 
   463)      1444.5  Rx         0250  8  08 00 40 00 00 00 00 00 
   464)      1447.2  Rx         0045  8  40 00 82 00 00 00 00 00 
   465)      1447.9  Rx         0210  7  FF FF 30 20 90 00 E2 
   466)      1448.2  Rx         04B0  8  27 10 27 10 27 10 27 10 
   467)      1461.9  Rx         0210  7  FF FF 30 20 90 00 E3 
   468)      1462.2  Rx         04B0  8  27 10 27 10 27 10 27 10 
   469)      1465.0  Rx         0442  8  00 00 00 00 00 00 00 00 
   470)      1465.5  Rx         0443  8  00 00 00 00 00 00 00 00 
   471)      1466.0  Rx         0444  8  00 00 00 00 00 00 00 00 
   472)      1476.0  Rx         0210  7  FF FF 30 20 90 00 E4 
   473)      1476.2  Rx         04B0  8  27 10 27 10 27 10 27 10 
   474)      1478.2  Rx         0495  2  7F 00 
   475)      1487.4  Rx         0251  8  40 00 00 00 00 00 00 00 
   476)      1490.0  Rx         0210  7  FF FF 30 20 90 00 E5 
   477)      1490.2  Rx         04B0  8  27 10 27 10 27 10 27 10 
   478)      1491.8  Rx         0301  8  00 04 0F 1D 00 64 01 18 
   479)      1492.1  Rx         0302  8  00 00 00 00 09 54 08 A2 
   480)      1492.3  Rx         0304  8  00 00 00 00 01 22 00 F0 
   481)      1492.5  Rx         0305  8  00 00 01 40 00 00 00 80 
   482)      1492.8  Rx         0303  8  0F 59 01 F4 06 00 00 00 
   483)      1497.2  Rx         0408  8  0F 02 84 10 80 2F 7F 50 
   484)      1497.5  Rx         0264  8  00 00 01 40 01 01 20 00 
   485)      1497.8  Rx         040B  8  00 00 08 00 00 00 60 00 
   486)      1503.1  Rx         0023  1  40 
   487)      1503.4  Rx         0460  8  03 E0 00 00 00 00 00 00 
   488)      1504.0  Rx         0210  7  FF FF 30 20 90 00 E6 
   489)      1504.2  Rx         04B0  8  27 10 27 10 27 10 27 10 
   490)      1507.5  Rx         0265  8  FF FE 00 00 00 69 00 00 
   491)      1517.3  Rx         0311  2  00 00 
   492)      1518.0  Rx         0210  7  FF FF 30 20 90 00 E7 
   493)      1518.2  Rx         04B0  8  27 10 27 10 27 10 27 10 
   494)      1532.0  Rx         0210  7  FF FF 30 20 90 00 E8 
   495)      1532.2  Rx         04B0  8  27 10 27 10 27 10 27 10 
   496)      1545.0  Rx         0250  8  08 00 40 00 00 00 00 00 
   497)      1545.6  Rx         0440  8  12 70 09 05 40 00 00 00 
   498)      1546.0  Rx         0210  7  FF FF 30 20 90 00 E9 
   499)      1546.3  Rx         0441  8  00 00 00 00 00 00 00 00 
   500)      1546.5  Rx         04B0  8  27 10 27 10 27 10 27 10 
   501)      1547.0  Rx         0045  8  40 00 82 00 00 00 00 00 
   502)      1560.1  Rx         0210  7  FF FF 30 20 90 00 EA 
   503)      1560.3  Rx         04B0  8  27 10 27 10 27 10 27 10 
   504)      1566.8  Rx         0610  8  06 6F 06 67 1D 18 00 00 
   505)      1567.0  Rx         0611  8  06 6D 00 08 E1 E1 E3 E4 
   506)      1574.0  Rx         0210  7  FF FF 30 20 90 00 EB 
   507)      1574.3  Rx         04B0  8  27 10 27 10 27 10 27 10 
   508)      1578.2  Rx         0495  2  7F 00 
   509)      1587.6  Rx         0251  8  40 00 00 00 00 00 00 00 
   510)      1588.0  Rx         0210  7  FF FF 30 20 90 00 EC 
   511)      1588.3  Rx         04B0  8  27 10 27 10 27 10 27 10 
   512)      1597.6  Rx         0265  8  FF FE 00 00 00 69 00 00 
   513)      1601.3  Rx         0345  8  00 C0 00 00 00 00 00 00 
   514)      1601.5  Rx         0344  4  FF 6C FF FF 
   515)      1602.0  Rx         0210  7  FF FF 30 20 90 00 ED 
   516)      1602.3  Rx         04B0  8  27 10 27 10 27 10 27 10 
   517)      1602.9  Rx         0460  8  03 E0 00 00 00 00 00 00 
   518)      1607.4  Rx         0310  3  02 00 06 
   519)      1616.1  Rx         0210  7  FF FF 30 20 90 00 EE 
   520)      1616.3  Rx         04B0  8  27 10 27 10 27 10 27 10 
   521)      1627.6  Rx         0359  8  18 00 00 86 00 00 00 00 
   522)      1630.1  Rx         0210  7  FF FF 30 20 90 00 EF 
   523)      1630.3  Rx         04B0  8  27 10 27 10 27 10 27 10 
   524)      1644.1  Rx         0210  7  FF FF 30 20 90 00 F0 
   525)      1644.3  Rx         04B0  8  27 10 27 10 27 10 27 10 
   526)      1645.2  Rx         0250  8  08 00 40 00 00 00 00 00 
   527)      1645.7  Rx         03A0  8  00 00 03 84 00 00 00 03 
   528)      1646.6  Rx         0441  8  00 00 00 00 00 00 00 00 
   529)      1647.0  Rx         0045  8  40 00 82 00 00 00 00 00 
   530)      1658.1  Rx         0210  7  FF FF 30 20 90 00 F1 
   531)      1658.4  Rx         04B0  8  27 10 27 10 27 10 27 10 
   532)      1665.0  Rx         0442  8  00 00 00 00 00 00 00 00 
   533)      1665.5  Rx         0443  8  00 00 00 00 00 00 00 00 
   534)      1665.9  Rx         0444  8  00 00 00 00 00 00 00 00 
   535)      1672.1  Rx         0210  7  FF FF 30 20 90 00 F2 
   536)      1672.4  Rx         04B0  8  27 10 27 10 27 10 27 10 
   537)      1678.2  Rx         0495  2  7F 00 
   538)      1686.1  Rx         0210  7  FF FF 30 20 90 00 F3 
   539)      1686.3  Rx         04B0  8  27 10 27 10 27 10 27 10 
   540)      1687.6  Rx         0251  8  40 00 00 00 00 00 00 00 
   541)      1691.8  Rx         0301  8  00 05 0F 1C 00 64 01 18 
   542)      1692.1  Rx         0302  8  00 00 00 00 09 54 08 A2 
   543)      1692.3  Rx         0304  8  00 00 00 00 01 22 00 F0 
   544)      1692.6  Rx         0305  8  00 00 01 40 00 00 00 80 
   545)      1692.8  Rx         0303  8  0F 59 01 F4 06 00 00 00 
   546)      1697.5  Rx         0264  8  01 00 00 40 01 01 20 00 
   547)      1700.1  Rx         0210  7  FF FF 30 20 90 00 F4 
   548)      1700.3  Rx         04B0  8  27 10 27 10 27 10 27 10 
   549)      1702.6  Rx         0023  1  40 
   550)      1702.9  Rx         0460  8  03 E0 00 00 00 00 00 00 
   551)      1707.6  Rx         0265  8  FF FE 00 00 00 69 00 00 
   552)      1714.1  Rx         0210  7  FF FF 30 20 90 00 F5 
   553)      1714.3  Rx         04B0  8  27 10 27 10 27 10 27 10 
   554)      1717.5  Rx         0311  2  00 00 
   555)      1727.0  Rx         0409  8  18 00 00 00 00 00 00 00 
   556)      1728.1  Rx         0210  7  FF FF 30 20 90 00 F6 
   557)      1728.4  Rx         04B0  8  27 10 27 10 27 10 27 10 
   558)      1742.2  Rx         0210  7  FF FF 30 20 90 00 F7 
   559)      1742.4  Rx         04B0  8  27 10 27 10 27 10 27 10 
   560)      1745.1  Rx         0250  8  08 00 40 00 00 00 00 00 
   561)      1745.5  Rx         0440  8  12 70 09 05 40 00 00 00 
   562)      1746.9  Rx         0045  8  40 00 82 00 00 00 00 00 
   563)      1749.1  Rx         0045  8  40 00 82 00 00 00 00 00 
   564)      1756.1  Rx         0210  7  FF FF 30 20 90 00 F8 
   565)      1756.4  Rx         04B0  8  27 10 27 10 27 10 27 10 
   566)      1766.8  Rx         0610  8  06 6F 06 67 1D 18 00 00 
   567)      1767.1  Rx         0611  8  06 6C 00 08 E1 E1 E3 E4 
   568)      1770.1  Rx         0210  7  FF FF 30 20 90 00 F9 
   569)      1770.4  Rx         04B0  8  27 10 27 10 27 10 27 10 
   570)      1778.1  Rx         0495  2  7F 00 
   571)      1784.2  Rx         0210  7  FF FF 30 20 90 00 FA 
   572)      1784.4  Rx         04B0  8  27 10 27 10 27 10 27 10 
   573)      1787.5  Rx         0251  8  40 00 00 00 00 00 00 00 
   574)      1797.6  Rx         0263  6  03 00 45 7E 95 00 
   575)      1798.2  Rx         0210  7  FF FF 30 20 90 00 FB 
   576)      1798.4  Rx         04B0  8  27 10 27 10 27 10 27 10 
   577)      1802.5  Rx         0460  8  03 E0 00 00 00 00 00 00 
   578)      1802.8  Rx         0345  8  00 C0 00 00 00 00 00 00 
   579)      1803.0  Rx         0344  4  FF 6C FF FF 
   580)      1805.3  Rx         03A1  8  80 38 00 00 45 00 EB 7E 
   581)      1807.6  Rx         0265  8  FF FD 00 00 00 69 00 00 
   582)      1812.2  Rx         0210  7  FF FF 30 20 90 00 FC 
   583)      1812.4  Rx         04B0  8  27 10 27 10 27 10 27 10 
   584)      1817.5  Rx         0310  3  02 00 06 
   585)      1826.2  Rx         0210  7  FF FF 30 20 90 00 FD 
   586)      1826.4  Rx         04B0  8  27 10 27 10 27 10 27 10 
   587)      1837.7  Rx         0359  8  18 00 00 86 00 00 00 00 
   588)      1840.2  Rx         0210  7  FF FF 30 20 90 00 FE 
   589)      1840.4  Rx         04B0  8  27 10 27 10 27 10 27 10 
   590)      1845.1  Rx         0250  8  08 00 40 00 00 00 00 00 
   591)      1845.7  Rx         0441  8  00 00 00 00 00 00 00 00 
   592)      1846.8  Rx         0045  8  40 00 82 00 00 00 00 00 
   593)      1854.2  Rx         0210  7  FF FF 30 20 90 00 FF 
   594)      1854.4  Rx         04B0  8  27 10 27 10 27 10 27 10 
   595)      1865.5  Rx         0442  8  00 00 00 00 00 00 00 00 
   596)      1866.0  Rx         0443  8  00 00 00 00 00 00 00 00 
   597)      1866.6  Rx         0444  8  00 00 00 00 00 00 00 00 
   598)      1868.2  Rx         0210  7  FF FF 30 20 90 00 00 
   599)      1868.5  Rx         04B0  8  27 10 27 10 27 10 27 10 
   600)      1878.1  Rx         0495  2  7F 00 
   601)      1882.2  Rx         0210  7  FF FF 30 20 90 00 01 
   602)      1882.4  Rx         04B0  8  27 10 27 10 27 10 27 10 
   603)      1887.7  Rx         0251  8  40 00 00 00 00 00 00 00 
   604)      1891.9  Rx         0301  8  00 05 0F 1C 00 64 01 18 
   605)      1892.1  Rx         0302  8  00 00 00 00 09 54 08 A2 
   606)      1892.3  Rx         0304  8  00 00 00 00 01 22 00 F0 
   607)      1892.6  Rx         0305  8  00 00 01 40 00 00 00 80 
   608)      1892.8  Rx         0303  8  0F 59 01 F4 06 00 00 00 
   609)      1896.2  Rx         0210  7  FF FF 30 20 90 00 02 
   610)      1896.5  Rx         04B0  8  27 10 27 10 27 10 27 10 
   611)      1897.7  Rx         0264  8  01 00 00 40 01 01 20 00 
   612)      1902.2  Rx         0023  1  40 
   613)      1902.4  Rx         0460  8  03 E0 00 00 00 00 00 00 
   614)      1907.6  Rx         0265  8  FF FD 00 00 00 69 00 00 
   615)      1910.2  Rx         0210  7  FF FF 30 20 90 00 03 
   616)      1910.5  Rx         04B0  8  27 10 27 10 27 10 27 10 
   617)      1917.6  Rx         0311  2  00 00 
   618)      1924.2  Rx         0210  7  FF FF 30 20 90 00 04 
   619)      1924.5  Rx         04B0  8  27 10 27 10 27 10 27 10 
   620)      1938.2  Rx         0210  7  FF FF 30 20 90 00 05 
   621)      1938.5  Rx         04B0  8  27 10 27 10 27 10 27 10 
   622)      1945.2  Rx         0250  8  08 00 40 00 00 00 00 00 
   623)      1945.7  Rx         0440  8  12 70 09 05 40 00 00 00 
   624)      1946.8  Rx         0045  8  40 00 82 00 00 00 00 00 
   625)      1952.2  Rx         0210  7  FF FF 30 20 90 00 06 
   626)      1952.5  Rx         04B0  8  27 10 27 10 27 10 27 10 
   627)      1966.3  Rx         0210  7  FF FF 30 20 90 00 07 
   628)      1966.5  Rx         04B0  8  27 10 27 10 27 10 27 10 
   629)      1966.9  Rx         0610  8  06 6F 06 67 1D 18 00 00 
   630)      1967.1  Rx         0611  8  06 6C 00 08 E1 E1 E3 E4 
   631)      1978.1  Rx         0495  2  7F 00 
   632)      1980.3  Rx         0210  7  FF FF 30 20 90 00 08 
   633)      1980.5  Rx         04B0  8  27 10 27 10 27 10 27 10 
   634)      1987.7  Rx         0251  8  40 00 00 00 00 00 00 00 
   635)      1994.3  Rx         0210  7  FF FF 30 20 90 00 09 
   636)      1994.5  Rx         04B0  8  27 10 27 10 27 10 27 10 
   637)      1996.7  Rx         0408  8  0F 02 82 10 80 2F 7E 50 
   638)      1997.3  Rx         040B  8  00 00 08 00 00 00 60 00 
   639)      1997.6  Rx         0265  8  FF FD 00 00 00 69 00 00 
   640)      2001.3  Rx         0345  8  00 C0 00 00 00 00 00 00 
   641)      2001.5  Rx         0344  4  FF 6C FF FF 
   642)      2002.2  Rx         0460  8  03 E0 00 00 00 00 00 00 
   643)      2007.6  Rx         0310  3  02 00 06 
   644)      2008.3  Rx         0210  7  FF FF 30 20 90 00 0A 
   645)      2008.5  Rx         04B0  8  27 10 27 10 27 10 27 10 
   646)      2022.3  Rx         0210  7  FF FF 30 20 90 00 0B 
   647)      2022.5  Rx         04B0  8  27 10 27 10 27 10 27 10 
   648)      2027.6  Rx         0359  8  18 00 00 86 00 00 00 00 
   649)      2036.3  Rx         0210  7  FF FF 30 20 90 00 0C 
   650)      2036.5  Rx         04B0  8  27 10 27 10 27 10 27 10 
   651)      2045.5  Rx         0250  8  08 00 40 00 00 00 00 00 
   652)      2046.1  Rx         0441  8  00 00 00 00 00 00 00 00 
   653)      2046.7  Rx         0045  8  40 00 82 00 00 00 00 00 
   654)      2050.3  Rx         0210  7  FF FF 30 20 90 00 0D 
   655)      2050.5  Rx         04B0  8  27 10 27 10 27 10 27 10 
   656)      2064.3  Rx         0210  7  FF FF 30 20 90 00 0E 
   657)      2064.5  Rx         04B0  8  27 10 27 10 27 10 27 10 
   658)      2065.6  Rx         0442  8  00 00 00 00 00 00 00 00 
   659)      2066.1  Rx         0443  8  00 00 00 00 00 00 00 00 
   660)      2066.5  Rx         0444  8  00 00 00 00 00 00 00 00 
   661)      2078.0  Rx         0495  2  7F 00 
   662)      2078.3  Rx         0210  7  FF FF 30 20 90 00 0F 
   663)      2078.6  Rx         04B0  8  27 10 27 10 27 10 27 10 
   664)      2087.7  Rx         0251  8  40 00 00 00 00 00 00 00 
   665)      2091.9  Rx         0301  8  00 05 0F 1C 00 64 01 18 
   666)      2092.1  Rx         0302  8  00 00 00 00 09 54 08 A2 
   667)      2092.4  Rx         0210  7  FF FF 30 20 90 00 10 
   668)      2092.6  Rx         0304  8  00 00 00 00 01 22 00 F0 
   669)      2092.8  Rx         0305  8  00 00 01 40 00 00 00 80 
   670)      2093.1  Rx         0303  8  0F 59 01 F4 06 00 00 00 
   671)      2093.3  Rx         04B0  8  27 10 27 10 27 10 27 10 
   672)      2097.7  Rx         0264  8  01 00 00 40 01 01 20 00 
   673)      2101.7  Rx         0023  1  40 
   674)      2102.0  Rx         0460  8  03 E0 00 00 00 00 00 00 
   675)      2106.3  Rx         0210  7  FF FF 30 20 90 00 11 
   676)      2106.6  Rx         04B0  8  27 10 27 10 27 10 27 10 
   677)      2107.8  Rx         0265  8  FF FD 00 00 00 69 00 00 
   678)      2117.6  Rx         0311  2  00 00 
   679)      2120.3  Rx         0210  7  FF FF 30 20 90 00 12 
   680)      2120.6  Rx         04B0  8  27 10 27 10 27 10 27 10 
   681)      2134.3  Rx         0210  7  FF FF 30 20 90 00 13 
   682)      2134.6  Rx         04B0  8  27 10 27 10 27 10 27 10 
   683)      2145.9  Rx         0250  8  08 00 40 00 00 00 00 00 
   684)      2146.3  Rx         0440  8  12 70 09 05 40 00 00 00 
   685)      2146.6  Rx         0045  8  40 00 82 00 00 00 00 00 
   686)      2146.9  Rx         03A0  8  00 00 03 84 00 00 00 03 
   687)      2147.8  Rx         0441  8  00 00 00 00 00 00 00 00 
   688)      2148.4  Rx         0210  7  FF FF 30 20 90 00 14 
   689)      2148.6  Rx         04B0  8  27 10 27 10 27 10 27 10 
   690)      2148.8  Rx         0045  8  40 00 82 00 00 00 00 00 
   691)      2162.4  Rx         0210  7  FF FF 30 20 90 00 15 
   692)      2162.6  Rx         04B0  8  27 10 27 10 27 10 27 10 
   693)      2166.9  Rx         0610  8  06 6F 06 67 1D 18 00 00 
   694)      2167.1  Rx         0300  8  02 04 27 00 00 3F 01 00 
   695)      2167.4  Rx         0306  8  00 00 00 00 00 00 00 00 
   696)      2167.6  Rx         0611  8  06 6C 00 08 E1 E1 E3 E4 
   697)      2167.8  Rx         0722  8  00 00 00 00 20 00 00 00 
   698)      2168.1  Rx         0723  8  00 00 00 00 20 00 00 00 
   699)      2168.3  Rx         0721  8  00 00 00 00 00 00 00 00 
   700)      2176.4  Rx         0210  7  FF FF 30 20 90 00 16 
   701)      2176.6  Rx         04B0  8  27 10 27 10 27 10 27 10 
   702)      2178.0  Rx         0495  2  7F 00 
   703)      2187.8  Rx         0251  8  40 00 00 00 00 00 00 00 
   704)      2190.4  Rx         0210  7  FF FF 30 20 90 00 17 
   705)      2190.6  Rx         04B0  8  27 10 27 10 27 10 27 10 
   706)      2197.8  Rx         0265  8  FF FD 00 00 00 69 00 00 
   707)      2201.3  Rx         0345  8  00 C0 00 00 00 00 00 00 
   708)      2201.5  Rx         0344  4  FF 6C FF FF 
   709)      2201.7  Rx         0460  8  03 E0 00 00 00 00 00 00 
   710)      2204.4  Rx         0210  7  FF FF 30 20 90 00 18 
   711)      2204.7  Rx         04B0  8  27 10 27 10 27 10 27 10 
   712)      2207.6  Rx         0310  3  02 00 06 
   713)      2218.4  Rx         0210  7  FF FF 30 20 90 00 19 
   714)      2218.6  Rx         04B0  8  27 10 27 10 27 10 27 10 
   715)      2226.6  Rx         0409  8  18 00 00 00 00 00 00 00 
   716)      2227.8  Rx         0359  8  18 00 00 86 00 00 00 00 
   717)      2232.4  Rx         0210  7  FF FF 30 20 90 00 1A 
   718)      2232.6  Rx         04B0  8  27 10 27 10 27 10 27 10 
   719)      2245.7  Rx         0250  8  08 00 40 00 00 00 00 00 
   720)      2246.4  Rx         0210  7  FF FF 30 20 90 00 1B 
   721)      2246.7  Rx         0045  8  40 00 82 00 00 00 00 00 
   722)      2246.9  Rx         04B0  8  27 10 27 10 27 10 27 10 
   723)      2260.4  Rx         0210  7  FF FF 30 20 90 00 1C 
   724)      2260.7  Rx         04B0  8  27 10 27 10 27 10 27 10 
   725)      2265.8  Rx         0442  8  00 00 00 00 00 00 00 00 
   726)      2266.3  Rx         0443  8  00 00 00 00 00 00 00 00 
   727)      2266.8  Rx         0444  8  00 00 00 00 00 00 00 00 
   728)      2274.5  Rx         0210  7  FF FF 30 20 90 00 1D 
   729)      2274.7  Rx         04B0  8  27 10 27 10 27 10 27 10 
   730)      2278.1  Rx         0495  2  7F 00 
   731)      2287.8  Rx         0251  8  40 00 00 00 00 00 00 00 
   732)      2288.4  Rx         0210  7  FF FF 30 20 90 00 1E 
   733)      2288.7  Rx         04B0  8  27 10 27 10 27 10 27 10 
   734)      2291.9  Rx         0301  8  00 05 0F 1C 00 64 01 18 
   735)      2292.2  Rx         0302  8  00 00 00 00 09 54 08 A2 
   736)      2292.4  Rx         0304  8  00 00 00 00 01 22 00 F0 
   737)      2292.6  Rx         0305  8  00 00 01 40 00 00 00 80 
   738)      2292.9  Rx         0303  8  0F 59 01 F4 06 00 00 00 
   739)      2297.7  Rx         0263  6  03 00 45 7D 96 00 
   740)      2301.3  Rx         0023  1  40 
   741)      2301.7  Rx         0460  8  03 E0 00 00 00 00 00 00 
   742)      2302.4  Rx         0210  7  FF FF 30 20 90 00 1F 
   743)      2302.7  Rx         04B0  8  27 10 27 10 27 10 27 10 
   744)      2305.9  Rx         03A1  8  80 38 00 00 45 00 EB 7D 
   745)      2307.8  Rx         0264  8  01 00 00 40 01 01 20 00 
   746)      2316.5  Rx         0210  7  FF FF 30 20 90 00 20 
   747)      2316.7  Rx         04B0  8  27 10 27 10 27 10 27 10 
   748)      2317.8  Rx         0265  8  FF FD 00 00 00 69 00 00 
   749)      2327.6  Rx         0311  2  00 00 
   750)      2330.5  Rx         0210  7  FF FF 30 20 90 00 21 
   751)      2330.7  Rx         04B0  8  27 10 27 10 27 10 27 10 
   752)      2344.5  Rx         0210  7  FF FF 30 20 90 00 22 
   753)      2344.7  Rx         04B0  8  27 10 27 10 27 10 27 10 
   754)      2346.0  Rx         0250  8  08 00 40 00 00 00 00 00 
   755)      2346.3  Rx         0440  8  12 70 09 05 40 00 00 00 
   756)      2346.6  Rx         0045  8  40 00 82 00 00 00 00 00 
   757)      2346.8  Rx         0441  8  00 00 00 00 00 00 00 00 
   758)      2358.5  Rx         0210  7  FF FF 30 20 90 00 23 
   759)      2358.7  Rx         04B0  8  27 10 27 10 27 10 27 10 
   760)      2366.9  Rx         0610  8  06 6F 06 67 1D 18 00 00 
   761)      2367.1  Rx         0611  8  06 6C 00 08 E1 E1 E3 E4 
   762)      2372.5  Rx         0210  7  FF FF 30 20 90 00 24 
   763)      2372.8  Rx         04B0  8  27 10 27 10 27 10 27 10 
   764)      2378.1  Rx         0495  2  7F 00 
   765)      2386.5  Rx         0210  7  FF FF 30 20 90 00 25 
   766)      2386.8  Rx         04B0  8  27 10 27 10 27 10 27 10 
   767)      2387.8  Rx         0251  8  40 00 00 00 00 00 00 00 
   768)      2397.8  Rx         0265  8  FF FD 00 00 00 69 00 00 
   769)      2400.5  Rx         0210  7  FF FF 30 20 90 00 26 
   770)      2400.7  Rx         04B0  8  27 10 27 10 27 10 27 10 
   771)      2401.3  Rx         0460  8  03 E0 00 00 00 00 00 00 
   772)      2401.5  Rx         0345  8  00 C0 00 00 00 00 00 00 
   773)      2401.6  Rx         0344  4  FF 6C FF FF 
   774)      2407.8  Rx         0310  3  02 00 06 
   775)      2414.5  Rx         0210  7  FF FF 30 20 90 00 27 
   776)      2414.7  Rx         04B0  8  27 10 27 10 27 10 27 10 
   777)      2427.9  Rx         0359  8  18 00 00 86 00 00 00 00 
   778)      2428.5  Rx         0210  7  FF FF 30 20 90 00 28 
   779)      2428.7  Rx         04B0  8  27 10 27 10 27 10 27 10 
   780)      2442.5  Rx         0210  7  FF FF 30 20 90 00 29 
   781)      2442.8  Rx         04B0  8  27 10 27 10 27 10 27 10 
   782)      2446.4  Rx         0045  8  40 00 82 00 00 00 00 00 
   783)      2447.0  Rx         0250  8  08 00 40 00 00 00 00 00 
   784)      2458.6  Rx         0210  7  FF FF 30 20 90 00 2A 
   785)      2458.9  Rx         04B0  8  27 10 27 10 27 10 27 10 
   786)      2466.2  Rx         0442  8  00 00 00 00 00 00 00 00 
   787)      2466.6  Rx         0443  8  00 00 00 00 00 00 00 00 
   788)      2467.2  Rx         0444  8  00 00 00 00 00 00 00 00 
   789)      2470.5  Rx         0210  7  FF FF 30 20 90 00 2B 
   790)      2470.8  Rx         04B0  8  27 10 27 10 27 10 27 10 
   791)      2478.1  Rx         0495  2  7F 00 
   792)      2484.5  Rx         0210  7  FF FF 30 20 90 00 2C 
   793)      2484.8  Rx         04B0  8  27 10 27 10 27 10 27 10 
   794)      2487.9  Rx         0251  8  40 00 00 00 00 00 00 00 
   795)      2493.5  Rx         0301  8  00 06 0F 1C 00 64 01 18 
   796)      2493.8  Rx         0304  8  00 00 00 00 01 22 00 F0 
   797)      2494.1  Rx         0305  8  00 00 01 40 00 00 00 80 
   798)      2494.6  Rx         0302  8  00 00 00 00 09 54 08 A2 
   799)      2495.5  Rx         0303  8  0F 59 01 F4 06 00 00 00 
   800)      2496.3  Rx         0408  8  0F 02 82 10 80 2F 7E 50 
   801)      2496.9  Rx         040B  8  00 00 08 00 00 00 60 00 
   802)      2498.0  Rx         0264  8  01 00 00 40 01 01 20 00 
   803)      2498.6  Rx         0210  7  FF FF 30 20 90 00 2D 
   804)      2498.8  Rx         04B0  8  27 10 27 10 27 10 27 10 
   805)      2501.1  Rx         0023  1  40 
   806)      2501.6  Rx         0460  8  03 E0 00 00 00 00 00 00 
   807)      2507.8  Rx         0265  8  FF FD 00 00 00 69 00 00 
   808)      2512.6  Rx         0210  7  FF FF 30 20 90 00 2E 
   809)      2512.8  Rx         04B0  8  27 10 27 10 27 10 27 10 
   810)      2517.8  Rx         0311  2  00 00 
   811)      2526.6  Rx         0210  7  FF FF 30 20 90 00 2F 
   812)      2526.8  Rx         04B0  8  27 10 27 10 27 10 27 10 
   813)      2540.6  Rx         0210  7  FF FF 30 20 90 00 30 
   814)      2540.8  Rx         04B0  8  27 10 27 10 27 10 27 10 
   815)      2546.1  Rx         0250  8  08 00 40 00 00 00 00 00 
   816)      2546.4  Rx         0045  8  40 00 82 00 00 00 00 00 
   817)      2546.6  Rx         0440  8  12 70 09 05 40 00 00 00 
   818)      2547.1  Rx         0441  8  00 00 00 00 00 00 00 00 
   819)      2548.5  Rx         0045  8  40 00 82 00 00 00 00 00 
   820)      2554.8  Rx         0210  7  FF FF 30 20 90 00 31 
   821)      2555.1  Rx         04B0  8  27 10 27 10 27 10 27 10 
   822)      2566.9  Rx         0610  8  06 6F 06 67 1D 18 00 00 
   823)      2567.1  Rx         0611  8  06 6C 00 08 E1 E1 E3 E4 
   824)      2568.6  Rx         0210  7  FF FF 30 20 90 00 32 
   825)      2568.8  Rx         04B0  8  27 10 27 10 27 10 27 10 
   826)      2577.9  Rx         0495  2  7F 00 
   827)      2582.5  Rx         0210  7  FF FF 30 20 90 00 33 
   828)      2582.8  Rx         04B0  8  27 10 27 10 27 10 27 10 
   829)      2587.8  Rx         0251  8  40 00 00 00 00 00 00 00 
   830)      2596.5  Rx         0210  7  FF FF 30 20 90 00 34 
   831)      2596.8  Rx         04B0  8  27 10 27 10 27 10 27 10 
   832)      2597.7  Rx         0265  8  FF FD 00 00 00 69 00 00 
   833)      2600.7  Rx         0460  8  03 E0 00 00 00 00 00 00 
   834)      2601.2  Rx         0345  8  00 C0 00 00 00 00 00 00 
   835)      2601.4  Rx         0344  4  FF 6C FF FF 
   836)      2607.7  Rx         0310  3  02 00 06 
   837)      2610.5  Rx         0210  7  FF FF 30 20 90 00 35 
   838)      2610.8  Rx         04B0  8  27 10 27 10 27 10 27 10 
   839)      2624.5  Rx         0210  7  FF FF 30 20 90 00 36 
   840)      2624.8  Rx         04B0  8  27 10 27 10 27 10 27 10 
   841)      2627.8  Rx         0359  8  18 00 00 86 00 00 00 00 
   842)      2638.5  Rx         0210  7  FF FF 30 20 90 00 37 
   843)      2638.8  Rx         04B0  8  27 10 27 10 27 10 27 10 
   844)      2646.1  Rx         0045  8  40 00 82 00 00 00 00 00 
   845)      2646.4  Rx         0250  8  08 00 40 00 00 00 00 00 
   846)      2646.8  Rx         03A0  8  00 00 03 84 00 00 00 03 
   847)      2647.7  Rx         0441  8  00 00 00 00 00 00 00 00 
   848)      2652.5  Rx         0210  7  FF FF 30 20 90 00 38 
   849)      2652.8  Rx         04B0  8  27 10 27 10 27 10 27 10 
   850)      2666.3  Rx         0442  8  00 00 00 00 00 00 00 00 
   851)      2666.8  Rx         0210  7  FF FF 30 20 90 00 39 
   852)      2667.1  Rx         0443  8  00 00 00 00 00 00 00 00 
   853)      2667.3  Rx         04B0  8  27 10 27 10 27 10 27 10 
   854)      2667.5  Rx         0444  8  00 00 00 00 00 00 00 00 
   855)      2677.9  Rx         0495  2  7F 00 
   856)      2680.8  Rx         0210  7  FF FF 30 20 90 00 3A 
   857)      2681.0  Rx         04B0  8  27 10 27 10 27 10 27 10 
   858)      2687.7  Rx         0251  8  40 00 00 00 00 00 00 00 
   859)      2691.8  Rx         0301  8  00 0A 0F 1C 00 64 01 18 
   860)      2692.1  Rx         0302  8  00 00 00 00 09 54 08 A2 
   861)      2692.3  Rx         0304  8  00 00 00 00 01 22 00 F0 
   862)      2692.6  Rx         0305  8  00 00 01 40 00 00 00 80 
   863)      2692.8  Rx         0303  8  0F 59 01 F4 06 00 00 00 
   864)      2694.6  Rx         0210  7  FF FF 30 20 90 00 3B 
   865)      2694.8  Rx         04B0  8  27 10 27 10 27 10 27 10 
   866)      2697.9  Rx         0264  8  01 00 00 40 01 01 20 00 
   867)      2700.5  Rx         0023  1  40 
   868)      2700.7  Rx         0460  8  03 E0 00 00 00 00 00 00 
   869)      2707.9  Rx         0265  8  FF FD 00 00 00 69 00 00 
   870)      2708.6  Rx         0210  7  FF FF 30 20 90 00 3C 
   871)      2708.8  Rx         04B0  8  27 10 27 10 27 10 27 10 
   872)      2717.7  Rx         0311  2  00 00 
   873)      2722.6  Rx         0210  7  FF FF 30 20 90 00 3D 
   874)      2722.9  Rx         04B0  8  27 10 27 10 27 10 27 10 
   875)      2726.0  Rx         0409  8  18 00 00 00 00 00 00 00 
   876)      2736.6  Rx         0210  7  FF FF 30 20 90 00 3E 
   877)      2736.9  Rx         04B0  8  27 10 27 10 27 10 27 10 
   878)      2745.9  Rx         0045  8  40 00 82 00 00 00 00 00 
   879)      2746.4  Rx         0250  8  08 00 40 00 00 00 00 00 
   880)      2746.9  Rx         0440  8  12 70 09 05 40 00 00 00 
   881)      2750.6  Rx         0210  7  FF FF 30 20 90 00 3F 
   882)      2750.8  Rx         04B0  8  27 10 27 10 27 10 27 10 
   883)      2764.6  Rx         0210  7  FF FF 30 20 90 00 40 
   884)      2765.1  Rx         04B0  8  27 10 27 10 27 10 27 10 
   885)      2766.9  Rx         0610  8  06 6F 06 67 1D 18 00 00 
   886)      2767.1  Rx         0611  8  06 6C 00 08 E1 E1 E3 E4 
   887)      2777.9  Rx         0495  2  7F 00 
   888)      2778.6  Rx         0210  7  FF FF 30 20 90 00 41 
   889)      2779.1  Rx         04B0  8  27 10 27 10 27 10 27 10 
   890)      2787.9  Rx         0251  8  40 00 00 00 00 00 00 00 
   891)      2792.6  Rx         0210  7  FF FF 30 20 90 00 42 
   892)      2792.9  Rx         04B0  8  27 10 27 10 27 10 27 10 
   893)      2797.9  Rx         0263  6  05 00 45 80 97 00 
   894)      2800.3  Rx         0460  8  03 E0 00 00 00 00 00 00 
   895)      2802.5  Rx         0345  8  00 C0 00 00 00 00 00 00 
   896)      2802.6  Rx         0344  4  FF 6C FF FF 
   897)      2806.5  Rx         03A1  8  80 38 00 00 45 00 EB 80 
   898)      2806.7  Rx         0210  7  FF FF 30 20 90 00 43 
   899)      2807.0  Rx         04B0  8  27 10 27 10 27 10 27 10 
   900)      2807.8  Rx         0265  8  FF FB 00 00 00 69 00 00 
   901)      2817.8  Rx         0310  3  02 00 06 
   902)      2821.0  Rx         0210  7  FF FF 30 20 90 00 44 
   903)      2821.2  Rx         04B0  8  27 10 27 10 27 10 27 10 
   904)      2834.6  Rx         0210  7  FF FF 30 20 90 00 45 
   905)      2834.9  Rx         04B0  8  27 10 27 10 27 10 27 10 
   906)      2837.8  Rx         0359  8  18 00 00 86 00 00 00 00 
   907)      2845.9  Rx         0045  8  40 00 82 00 00 00 00 00 
   908)      2846.5  Rx         0250  8  08 00 40 00 00 00 00 00 
   909)      2847.0  Rx         0441  8  00 00 00 00 00 00 00 00 
   910)      2848.6  Rx         0210  7  FF FF 30 20 90 00 46 
   911)      2848.9  Rx         04B0  8  27 10 27 10 27 10 27 10 
   912)      2862.7  Rx         0210  7  FF FF 30 20 90 00 47 
   913)      2862.9  Rx         04B0  8  27 10 27 10 27 10 27 10 
   914)      2866.9  Rx         0442  8  00 00 00 00 00 00 00 00 
   915)      2867.4  Rx         0443  8  00 00 00 00 00 00 00 00 
   916)      2867.9  Rx         0444  8  00 00 00 00 00 00 00 00 
   917)      2876.7  Rx         0210  7  FF FF 30 20 90 00 48 
   918)      2876.9  Rx         04B0  8  27 10 27 10 27 10 27 10 
   919)      2877.8  Rx         0495  2  7F 00 
   920)      2887.9  Rx         0251  8  40 00 00 00 00 00 00 00 
   921)      2890.7  Rx         0210  7  FF FF 30 20 90 00 49 
   922)      2890.9  Rx         04B0  8  27 10 27 10 27 10 27 10 
   923)      2891.9  Rx         0301  8  00 0C 0F 1C 00 64 01 18 
   924)      2892.2  Rx         0302  8  00 00 00 00 09 54 08 A2 
   925)      2892.4  Rx         0304  8  00 00 00 00 01 22 00 F0 
   926)      2892.6  Rx         0305  8  00 00 01 40 00 00 00 80 
   927)      2892.9  Rx         0303  8  0F 59 01 F4 06 00 00 00 
   928)      2897.8  Rx         0264  8  01 00 00 40 01 01 20 00 
   929)      2900.0  Rx         0023  1  40 
   930)      2900.2  Rx         0460  8  03 E0 00 00 00 00 00 00 
   931)      2904.7  Rx         0210  7  FF FF 30 20 90 00 4A 
   932)      2904.9  Rx         04B0  8  27 10 27 10 27 10 27 10 
   933)      2907.9  Rx         0265  8  FF FB 00 00 00 69 00 00 
   934)      2917.8  Rx         0311  2  00 00 
   935)      2918.7  Rx         0210  7  FF FF 30 20 90 00 4B 
   936)      2919.0  Rx         04B0  8  27 10 27 10 27 10 27 10 
   937)      2932.7  Rx         0210  7  FF FF 30 20 90 00 4C 
   938)      2933.2  Rx         04B0  8  27 10 27 10 27 10 27 10 
   939)      2945.7  Rx         0045  8  40 00 82 00 00 00 00 00 
   940)      2946.6  Rx         0250  8  08 00 40 00 00 00 00 00 
   941)      2946.8  Rx         0210  7  FF FF 30 20 90 00 4D 
   942)      2947.1  Rx         04B0  8  27 10 27 10 27 10 27 10 
   943)      2947.3  Rx         0440  8  12 70 09 05 40 00 00 00 
   944)      2947.9  Rx         0045  8  40 00 82 00 00 00 00 00 
   945)      2960.7  Rx         0210  7  FF FF 30 20 90 00 4E 
   946)      2961.0  Rx         04B0  8  27 10 27 10 27 10 27 10 
   947)      2966.9  Rx         0610  8  06 6F 06 67 1D 18 00 00 
   948)      2967.1  Rx         0611  8  06 6C 00 08 E1 E1 E3 E4 
   949)      2974.7  Rx         0210  7  FF FF 30 20 90 00 4F 
   950)      2975.0  Rx         04B0  8  27 10 27 10 27 10 27 10 
   951)      2977.8  Rx         0495  2  7F 00 
   952)      2987.9  Rx         0251  8  40 00 00 00 00 00 00 00 
   953)      2988.8  Rx         0210  7  FF FF 30 20 90 00 50 
   954)      2989.0  Rx         04B0  8  27 10 27 10 27 10 27 10 
   955)      2995.6  Rx         0408  8  0F 02 82 10 80 2F 84 50 
   956)      2996.2  Rx         040B  8  00 00 08 00 00 00 60 00 
   957)      2998.0  Rx         0265  8  FF FA 00 00 00 69 00 00 
   958)      2999.8  Rx         0460  8  03 E0 00 00 00 00 00 00 
   959)      3001.2  Rx         0345  8  00 C0 00 00 00 00 00 00 
   960)      3001.4  Rx         0344  4  FF 6C FF FF 
   961)      3002.7  Rx         0210  7  FF FF 30 20 90 00 51 
   962)      3003.0  Rx         04B0  8  27 10 27 10 27 10 27 10 
   963)      3007.9  Rx         0310  3  02 00 06 
   964)      3016.7  Rx         0210  7  FF FF 30 20 90 00 52 
   965)      3017.0  Rx         04B0  8  27 10 27 10 27 10 27 10 
   966)      3028.0  Rx         0359  8  18 00 00 86 00 00 00 00 
   967)      3030.7  Rx         0210  7  FF FF 30 20 90 00 53 
   968)      3031.0  Rx         04B0  8  27 10 27 10 27 10 27 10 
   969)      3044.8  Rx         0210  7  FF FF 30 20 90 00 54 
   970)      3045.0  Rx         04B0  8  27 10 27 10 27 10 27 10 
   971)      3045.6  Rx         0045  8  40 00 82 00 00 00 00 00 
   972)      3047.0  Rx         0250  8  08 00 40 00 00 00 00 00 
   973)      3047.6  Rx         0441  8  00 00 00 00 00 00 00 00 
   974)      3058.8  Rx         0210  7  FF FF 30 20 90 00 55 
   975)      3059.0  Rx         04B0  8  27 10 27 10 27 10 27 10 
   976)      3066.9  Rx         0442  8  00 00 00 00 00 00 00 00 
   977)      3067.4  Rx         0443  8  00 00 00 00 00 00 00 00 
   978)      3067.9  Rx         0444  8  00 00 00 00 00 00 00 00 
   979)      3072.8  Rx         0210  7  FF FF 30 20 90 00 56 
   980)      3073.0  Rx         04B0  8  27 10 27 10 27 10 27 10 
   981)      3077.8  Rx         0495  2  7F 00 
   982)      3086.8  Rx         0210  7  FF FF 30 20 90 00 57 
   983)      3087.3  Rx         04B0  8  27 10 27 10 27 10 27 10 
   984)      3088.0  Rx         0251  8  40 00 00 00 00 00 00 00 
   985)      3091.9  Rx         0301  8  00 0D 0F 1C 00 64 01 18 
   986)      3092.1  Rx         0302  8  00 00 00 00 09 54 08 A2 
   987)      3092.4  Rx         0304  8  00 00 00 00 01 22 00 F0 
   988)      3092.6  Rx         0305  8  00 00 01 40 00 00 00 80 
   989)      3092.9  Rx         0303  8  0F 59 01 F4 06 00 00 00 
   990)      3098.0  Rx         0264  8  01 00 00 40 01 01 20 00 
   991)      3099.5  Rx         0023  1  40 
   992)      3099.8  Rx         0460  8  03 E0 00 00 00 00 00 00 
   993)      3100.8  Rx         0210  7  FF FF 30 20 90 00 58 
   994)      3101.0  Rx         04B0  8  27 10 27 10 27 10 27 10 
   995)      3107.9  Rx         0265  8  FF FA 00 00 00 69 00 00 
   996)      3114.8  Rx         0210  7  FF FF 30 20 90 00 59 
   997)      3115.0  Rx         04B0  8  27 10 27 10 27 10 27 10 
   998)      3117.9  Rx         0311  2  00 00 
   999)      3128.8  Rx         0210  7  FF FF 30 20 90 00 5A 
  1000)      3129.0  Rx         04B0  8  27 10 27 10 27 10 27 10 
  1001)      3142.8  Rx         0210  7  FF FF 30 20 90 00 5B 
  1002)      3143.1  Rx         04B0  8  27 10 27 10 27 10 27 10 
  1003)      3145.5  Rx         0045  8  40 00 82 00 00 00 00 00 
  1004)      3147.0  Rx         0250  8  08 00 40 00 00 00 00 00 
  1005)      3147.5  Rx         0440  8  12 70 09 05 40 00 00 00 
  1006)      3148.0  Rx         03A0  8  00 00 03 84 00 00 00 03 
  1007)      3148.9  Rx         0441  8  00 00 00 00 00 00 00 00 
  1008)      3156.8  Rx         0210  7  FF FF 30 20 90 00 5C 
  1009)      3157.1  Rx         04B0  8  27 10 27 10 27 10 27 10 
  1010)      3166.9  Rx         0610  8  06 6F 06 67 1D 18 00 00 
  1011)      3167.1  Rx         0300  8  02 04 27 00 00 3F 01 00 
  1012)      3167.4  Rx         0306  8  00 00 00 00 00 00 00 00 
  1013)      3167.6  Rx         0611  8  06 6C 00 08 E1 E1 E3 E4 
  1014)      3167.9  Rx         0722  8  00 00 00 00 20 00 00 00 
  1015)      3168.1  Rx         0723  8  00 00 00 00 20 00 00 00 
  1016)      3168.4  Rx         0721  8  00 00 00 00 00 00 00 00 
  1017)      3170.9  Rx         0210  7  FF FF 30 20 90 00 5D 
  1018)      3171.1  Rx         04B0  8  27 10 27 10 27 10 27 10 
  1019)      3177.7  Rx         0495  2  7F 00 
  1020)      3184.8  Rx         0210  7  FF FF 30 20 90 00 5E 
  1021)      3185.1  Rx         04B0  8  27 10 27 10 27 10 27 10 
  1022)      3188.0  Rx         0251  8  40 00 00 00 00 00 00 00 
  1023)      3197.9  Rx         0265  8  FF FA 00 00 00 69 00 00 
  1024)      3198.8  Rx         0210  7  FF FF 30 20 90 00 5F 
  1025)      3199.1  Rx         04B0  8  27 10 27 10 27 10 27 10 
  1026)      3199.6  Rx         0460  8  03 E0 00 00 00 00 00 00 
  1027)      3201.2  Rx         0345  8  00 C0 00 00 00 00 00 00 
  1028)      3201.4  Rx         0344  4  FF 6C FF FF 
  1029)      3207.9  Rx         0310  3  02 00 06 
  1030)      3212.9  Rx         0210  7  FF FF 30 20 90 00 60 
  1031)      3213.1  Rx         04B0  8  27 10 27 10 27 10 27 10 
  1032)      3225.5  Rx         0409  8  18 00 00 00 00 00 00 00 
  1033)      3227.1  Rx         0210  7  FF FF 30 20 90 00 61 
  1034)      3227.3  Rx         04B0  8  27 10 27 10 27 10 27 10 
  1035)      3228.0  Rx         0359  8  18 00 00 86 00 00 00 00 
  1036)      3240.9  Rx         0210  7  FF FF 30 20 90 00 62 
  1037)      3241.1  Rx         04B0  8  27 10 27 10 27 10 27 10 
  1038)      3245.5  Rx         0045  8  40 00 82 00 00 00 00 00 
  1039)      3247.1  Rx         0250  8  08 00 40 00 00 00 00 00 
  1040)      3254.9  Rx         0210  7  FF FF 30 20 90 00 63 
  1041)      3255.1  Rx         04B0  8  27 10 27 10 27 10 27 10 
  1042)      3267.2  Rx         0442  8  00 00 00 00 00 00 00 00 
  1043)      3267.7  Rx         0443  8  00 00 00 00 00 00 00 00 
  1044)      3268.2  Rx         0444  8  00 00 00 00 00 00 00 00 
  1045)      3268.9  Rx         0210  7  FF FF 30 20 90 00 64 
  1046)      3269.1  Rx         04B0  8  27 10 27 10 27 10 27 10 
  1047)      3277.7  Rx         0495  2  7F 00 
  1048)      3282.9  Rx         0210  7  FF FF 30 20 90 00 65 
  1049)      3283.1  Rx         04B0  8  27 10 27 10 27 10 27 10 
  1050)      3288.0  Rx         0251  8  40 00 00 00 00 00 00 00 
  1051)      3291.9  Rx         0301  8  00 0E 0F 1C 00 64 01 18 
  1052)      3292.2  Rx         0302  8  00 00 00 00 09 54 08 A2 
  1053)      3292.4  Rx         0304  8  00 00 00 00 01 22 00 F0 
  1054)      3292.7  Rx         0305  8  00 00 01 40 00 00 00 80 
  1055)      3292.9  Rx         0303  8  0F 59 01 F4 06 00 00 00 
  1056)      3296.9  Rx         0210  7  FF FF 30 20 90 00 66 
  1057)      3297.1  Rx         04B0  8  27 10 27 10 27 10 27 10 
  1058)      3298.0  Rx         0263  6  05 00 45 85 98 00 
  1059)      3299.1  Rx         0023  1  40 
  1060)      3299.5  Rx         0460  8  03 E0 00 00 00 00 00 00 
  1061)      3307.3  Rx         03A1  8  80 38 00 00 45 00 EB 85 
  1062)      3308.1  Rx         0264  8  01 00 00 40 01 01 20 00 
  1063)      3310.9  Rx         0210  7  FF FF 30 20 90 00 67 
  1064)      3311.2  Rx         04B0  8  27 10 27 10 27 10 27 10 
  1065)      3318.0  Rx         0265  8  FF FA 00 00 00 69 00 00 
  1066)      3324.9  Rx         0210  7  FF FF 30 20 90 00 68 
  1067)      3325.2  Rx         04B0  8  27 10 27 10 27 10 27 10 
  1068)      3328.0  Rx         0311  2  00 00 
  1069)      3338.9  Rx         0210  7  FF FF 30 20 90 00 69 
  1070)      3339.2  Rx         04B0  8  27 10 27 10 27 10 27 10 
  1071)      3345.3  Rx         0045  8  40 00 82 00 00 00 00 00 
  1072)      3347.3  Rx         0250  8  08 00 40 00 00 00 00 00 
  1073)      3347.6  Rx         0045  8  40 00 82 00 00 00 00 00 
  1074)      3347.8  Rx         0440  8  12 70 09 05 40 00 00 00 
  1075)      3348.1  Rx         0441  8  00 00 00 00 00 00 00 00 
  1076)      3352.9  Rx         0210  7  FF FF 30 20 90 00 6A 
  1077)      3353.2  Rx         04B0  8  27 10 27 10 27 10 27 10 
  1078)      3366.9  Rx         0610  8  06 6F 06 67 1D 18 00 00 
  1079)      3367.1  Rx         0210  7  FF FF 30 20 90 00 6B 
  1080)      3367.4  Rx         04B0  8  27 10 27 10 27 10 27 10 
  1081)      3367.6  Rx         0611  8  06 6C 00 08 E1 E1 E3 E4 
  1082)      3377.7  Rx         0495  2  7F 00 
  1083)      3380.9  Rx         0210  7  FF FF 30 20 90 00 6C 
  1084)      3381.2  Rx         04B0  8  27 10 27 10 27 10 27 10 
  1085)      3388.1  Rx         0251  8  40 00 00 00 00 00 00 00 
  1086)      3395.0  Rx         0210  7  FF FF 30 20 90 00 6D 
  1087)      3395.2  Rx         04B0  8  27 10 27 10 27 10 27 10 
  1088)      3398.1  Rx         0265  8  FF F9 00 00 00 69 00 00 
  1089)      3399.1  Rx         0460  8  03 E0 00 00 00 00 00 00 
  1090)      3401.2  Rx         0345  8  00 C0 00 00 00 00 00 00 
  1091)      3401.4  Rx         0344  4  FF 6C FF FF 
  1092)      3407.9  Rx         0310  3  02 00 06 
  1093)      3409.0  Rx         0210  7  FF FF 30 20 90 00 6E 
  1094)      3409.2  Rx         04B0  8  27 10 27 10 27 10 27 10 
  1095)      3423.0  Rx         0210  7  FF FF 30 20 90 00 6F 
  1096)      3423.3  Rx         04B0  8  27 10 27 10 27 10 27 10 
  1097)      3428.1  Rx         0359  8  18 00 00 86 00 00 00 00 
  1098)      3437.2  Rx         0210  7  FF FF 30 20 90 00 70 
  1099)      3437.5  Rx         04B0  8  27 10 27 10 27 10 27 10 
  1100)      3445.1  Rx         0045  8  40 00 82 00 00 00 00 00 
  1101)      3447.5  Rx         0250  8  08 00 40 00 00 00 00 00 
  1102)      3451.0  Rx         0210  7  FF FF 30 20 90 00 71 
  1103)      3451.3  Rx         04B0  8  27 10 27 10 27 10 27 10 
  1104)      3465.0  Rx         0210  7  FF FF 30 20 90 00 72 
  1105)      3465.3  Rx         04B0  8  27 10 27 10 27 10 27 10 
  1106)      3467.3  Rx         0442  8  00 00 00 00 00 00 00 00 
  1107)      3467.9  Rx         0443  8  00 00 00 00 00 00 00 00 
  1108)      3468.4  Rx         0444  8  00 00 00 00 00 00 00 00 
  1109)      3477.6  Rx         0495  2  7F 00 
  1110)      3479.2  Rx         0210  7  FF FF 30 20 90 00 73 
  1111)      3479.5  Rx         04B0  8  27 10 27 10 27 10 27 10 
  1112)      3488.2  Rx         0251  8  40 00 00 00 00 00 00 00 
  1113)      3492.0  Rx         0301  8  00 0E 0F 1C 00 64 01 18 
  1114)      3492.2  Rx         0302  8  00 00 00 00 09 54 08 A2 
  1115)      3492.4  Rx         0304  8  00 00 00 00 01 22 00 F0 
  1116)      3492.7  Rx         0305  8  00 00 01 40 00 00 00 80 
  1117)      3492.9  Rx         0303  8  0F 59 01 F4 06 00 00 00 
  1118)      3493.4  Rx         0210  7  FF FF 30 20 90 00 74 
  1119)      3493.6  Rx         04B0  8  27 10 27 10 27 10 27 10 
  1120)      3495.1  Rx         0408  8  0F 02 82 10 80 2F 89 50 
  1121)      3495.7  Rx         040B  8  00 00 08 00 00 00 60 00 
  1122)      3498.1  Rx         0264  8  01 00 00 40 01 01 20 00 
  1123)      3498.8  Rx         0023  1  40 
  1124)      3499.1  Rx         0460  8  03 E0 00 00 00 00 00 00 
  1125)      3507.0  Rx         0210  7  FF FF 30 20 90 00 75 
  1126)      3507.3  Rx         04B0  8  27 10 27 10 27 10 27 10 
  1127)      3508.1  Rx         0265  8  FF F9 00 00 00 69 00 00 
  1128)      3518.0  Rx         0311  2  00 00 
  1129)      3521.1  Rx         0210  7  FF FF 30 20 90 00 76 
  1130)      3521.3  Rx         04B0  8  27 10 27 10 27 10 27 10 
  1131)      3535.0  Rx         0210  7  FF FF 30 20 90 00 77 
  1132)      3535.3  Rx         04B0  8  27 10 27 10 27 10 27 10 
  1133)      3545.0  Rx         0045  8  40 00 82 00 00 00 00 00 
  1134)      3547.5  Rx         0250  8  08 00 40 00 00 00 00 00 
  1135)      3547.9  Rx         0440  8  12 70 09 05 40 00 00 00 
  1136)      3548.4  Rx         0441  8  00 00 00 00 00 00 00 00 
  1137)      3549.0  Rx         0210  7  FF FF 30 20 90 00 78 
  1138)      3549.3  Rx         04B0  8  27 10 27 10 27 10 27 10 
  1139)      3563.0  Rx         0210  7  FF FF 30 20 90 00 79 
  1140)      3563.3  Rx         04B0  8  27 10 27 10 27 10 27 10 
  1141)      3566.9  Rx         0610  8  06 6F 06 67 1D 18 00 00 
  1142)      3567.2  Rx         0611  8  06 6C 00 08 E1 E1 E3 E4 
  1143)      3577.1  Rx         0210  7  FF FF 30 20 90 00 7A 
  1144)      3577.3  Rx         04B0  8  27 10 27 10 27 10 27 10 
  1145)      3577.6  Rx         0495  2  7F 00 
  1146)      3588.1  Rx         0251  8  40 00 00 00 00 00 00 00 
  1147)      3591.1  Rx         0210  7  FF FF 30 20 90 00 7B 
  1148)      3591.3  Rx         04B0  8  27 10 27 10 27 10 27 10 
  1149)      3598.2  Rx         0265  8  FF F9 00 00 00 69 00 00 
  1150)      3598.6  Rx         0460  8  03 E0 00 00 00 00 00 00 
  1151)      3601.2  Rx         0345  8  00 C0 00 00 00 00 00 00 
  1152)      3601.4  Rx         0344  4  FF 6C FF FF 
  1153)      3605.1  Rx         0210  7  FF FF 30 20 90 00 7C 
  1154)      3605.4  Rx         04B0  8  27 10 27 10 27 10 27 10 
  1155)      3608.1  Rx         0310  3  02 00 06 
  1156)      3619.1  Rx         0210  7  FF FF 30 20 90 00 7D 
  1157)      3619.6  Rx         04B0  8  27 10 27 10 27 10 27 10 
  1158)      3628.4  Rx         0359  8  18 00 00 86 00 00 00 00 
  1159)      3633.4  Rx         0210  7  FF FF 30 20 90 00 7E 
  1160)      3633.6  Rx         04B0  8  27 10 27 10 27 10 27 10 
  1161)      3644.9  Rx         0045  8  40 00 82 00 00 00 00 00 
  1162)      3647.2  Rx         0210  7  FF FF 30 20 90 00 7F 
  1163)      3647.4  Rx         04B0  8  27 10 27 10 27 10 27 10 
  1164)      3648.0  Rx         0250  8  08 00 40 00 00 00 00 00 
  1165)      3648.5  Rx         03A0  8  00 00 03 84 00 00 00 03 
  1166)      3649.4  Rx         0441  8  00 00 00 00 00 00 00 00 
  1167)      3661.2  Rx         0210  7  FF FF 30 20 90 00 80 
  1168)      3661.4  Rx         04B0  8  27 10 27 10 27 10 27 10 
  1169)      3667.6  Rx         0442  8  00 00 00 00 00 00 00 00 
  1170)      3668.2  Rx         0443  8  00 00 00 00 00 00 00 00 
  1171)      3668.7  Rx         0444  8  00 00 00 00 00 00 00 00 
  1172)      3675.1  Rx         0210  7  FF FF 30 20 90 00 81 
  1173)      3675.4  Rx         04B0  8  27 10 27 10 27 10 27 10 
  1174)      3677.6  Rx         0495  2  7F 00 
  1175)      3688.2  Rx         0251  8  40 00 00 00 00 00 00 00 
  1176)      3689.2  Rx         0210  7  FF FF 30 20 90 00 82 
  1177)      3689.4  Rx         04B0  8  27 10 27 10 27 10 27 10 
  1178)      3692.0  Rx         0301  8  00 0F 0F 1B 00 64 01 18 
  1179)      3692.3  Rx         0302  8  00 00 00 00 09 54 08 A2 
  1180)      3692.6  Rx         0304  8  00 00 00 00 01 22 00 F0 
  1181)      3692.9  Rx         0305  8  00 00 01 40 00 00 00 80 
  1182)      3693.1  Rx         0303  8  0F 59 01 F4 06 00 00 00 
  1183)      3698.2  Rx         0264  8  01 00 00 40 01 01 20 00 
  1184)      3698.4  Rx         0023  1  40 
  1185)      3698.6  Rx         0460  8  03 E0 00 00 00 00 00 00 
  1186)      3703.2  Rx         0210  7  FF FF 30 20 90 00 83 
  1187)      3703.4  Rx         04B0  8  27 10 27 10 27 10 27 10 
  1188)      3708.1  Rx         0265  8  FF F9 00 00 00 69 00 00 
  1189)      3717.2  Rx         0210  7  FF FF 30 20 90 00 84 
  1190)      3717.4  Rx         04B0  8  27 10 27 10 27 10 27 10 
  1191)      3718.2  Rx         0311  2  00 00 
  1192)      3725.1  Rx         0409  8  18 00 00 00 00 00 00 00 
  1193)      3731.2  Rx         0210  7  FF FF 30 20 90 00 85 
  1194)      3731.5  Rx         04B0  8  27 10 27 10 27 10 27 10 
  1195)      3745.0  Rx         0045  8  40 00 82 00 00 00 00 00 
  1196)      3745.2  Rx         0210  7  FF FF 30 20 90 00 86 
  1197)      3745.4  Rx         04B0  8  27 10 27 10 27 10 27 10 
  1198)      3747.1  Rx         0045  8  40 00 82 00 00 00 00 00 
  1199)      3747.9  Rx         0250  8  08 00 40 00 00 00 00 00 
  1200)      3748.4  Rx         0440  8  12 70 09 05 40 00 00 00 
  1201)      3759.2  Rx         0210  7  FF FF 30 20 90 00 87 
  1202)      3759.4  Rx         04B0  8  27 10 27 10 27 10 27 10 
  1203)      3767.0  Rx         0610  8  06 6F 06 66 1D 18 00 00 
  1204)      3767.5  Rx         0611  8  06 6C 00 09 E1 E1 E3 E4 
  1205)      3773.2  Rx         0210  7  FF FF 30 20 90 00 88 
  1206)      3773.5  Rx         04B0  8  27 10 27 10 27 10 27 10 
  1207)      3777.5  Rx         0495  2  7F 00 
  1208)      3787.2  Rx         0210  7  FF FF 30 20 90 00 89 
  1209)      3787.4  Rx         04B0  8  27 10 27 10 27 10 27 10 
  1210)      3788.3  Rx         0251  8  40 00 00 00 00 00 00 00 
  1211)      3798.1  Rx         0263  6  05 00 45 88 99 00 
  1212)      3798.4  Rx         0460  8  03 E0 00 00 00 00 00 00 
  1213)      3801.3  Rx         0210  7  FF FF 30 20 90 00 8A 
  1214)      3801.5  Rx         04B0  8  27 10 27 10 27 10 27 10 
  1215)      3802.5  Rx         0345  8  00 C0 00 00 00 00 00 00 
  1216)      3802.7  Rx         0344  4  FF 6C FF FF 
  1217)      3808.0  Rx         03A1  8  80 38 00 00 45 00 EB 88 
  1218)      3808.3  Rx         0265  8  FF F9 00 00 00 69 00 00 
  1219)      3815.5  Rx         0210  7  FF FF 30 20 90 00 8B 
  1220)      3815.7  Rx         04B0  8  27 10 27 10 27 10 27 10 
  1221)      3818.2  Rx         0310  3  02 00 06 
  1222)      3829.3  Rx         0210  7  FF FF 30 20 90 00 8C 
  1223)      3829.5  Rx         04B0  8  27 10 27 10 27 10 27 10 
  1224)      3838.3  Rx         0359  8  18 00 00 86 00 00 00 00 
  1225)      3843.5  Rx         0210  7  FF FF 30 20 90 00 8D 
  1226)      3843.7  Rx         04B0  8  27 10 27 10 27 10 27 10 
  1227)      3844.8  Rx         0045  8  40 00 82 00 00 00 00 00 
  1228)      3848.0  Rx         0250  8  08 00 40 00 00 00 00 00 
  1229)      3848.5  Rx         0441  8  00 00 00 00 00 00 00 00 
  1230)      3857.2  Rx         0210  7  FF FF 30 20 90 00 8E 
  1231)      3857.5  Rx         04B0  8  27 10 27 10 27 10 27 10 
  1232)      3868.3  Rx         0442  8  00 00 00 00 00 00 00 00 
  1233)      3868.9  Rx         0443  8  00 00 00 00 00 00 00 00 
  1234)      3869.4  Rx         0444  8  00 00 00 00 00 00 00 00 
  1235)      3871.3  Rx         0210  7  FF FF 30 20 90 00 8F 
  1236)      3871.5  Rx         04B0  8  27 10 27 10 27 10 27 10 
  1237)      3877.5  Rx         0495  2  7F 00 
  1238)      3885.3  Rx         0210  7  FF FF 30 20 90 00 90 
  1239)      3885.5  Rx         04B0  8  27 10 27 10 27 10 27 10 
  1240)      3888.2  Rx         0251  8  40 00 00 00 00 00 00 00 
  1241)      3892.0  Rx         0301  8  00 0F 0F 1C 00 64 01 18 
  1242)      3892.3  Rx         0302  8  00 00 00 00 09 54 08 A2 
  1243)      3892.5  Rx         0304  8  00 00 00 00 01 22 00 F0 
  1244)      3892.7  Rx         0305  8  00 00 01 40 00 00 00 80 
  1245)      3893.0  Rx         0303  8  0F 59 01 F4 06 00 00 00 
  1246)      3898.0  Rx         0023  1  40 
  1247)      3898.3  Rx         0460  8  03 E0 00 00 00 00 00 00 
  1248)      3898.5  Rx         0264  8  01 00 00 40 01 01 20 00 
  1249)      3899.3  Rx         0210  7  FF FF 30 20 90 00 91 
  1250)      3899.5  Rx         04B0  8  27 10 27 10 27 10 27 10 
  1251)      3908.3  Rx         0265  8  FF F9 00 00 00 69 00 00 
  1252)      3913.3  Rx         0210  7  FF FF 30 20 90 00 92 
  1253)      3913.8  Rx         04B0  8  27 10 27 10 27 10 27 10 
  1254)      3918.1  Rx         0311  2  00 00 
  1255)      3927.3  Rx         0210  7  FF FF 30 20 90 00 93 
  1256)      3927.5  Rx         04B0  8  27 10 27 10 27 10 27 10 
  1257)      3941.3  Rx         0210  7  FF FF 30 20 90 00 94 
  1258)      3941.8  Rx         04B0  8  27 10 27 10 27 10 27 10 
  1259)      3944.7  Rx         0045  8  40 00 82 00 00 00 00 00 
  1260)      3948.4  Rx         0250  8  08 00 40 00 00 00 00 00 
  1261)      3948.9  Rx         0440  8  12 70 09 05 40 00 00 00 
  1262)      3955.3  Rx         0210  7  FF FF 30 20 90 00 95 
  1263)      3955.6  Rx         04B0  8  27 10 27 10 27 10 27 10 
  1264)      3967.0  Rx         0610  8  06 6F 06 66 1D 18 00 00 
  1265)      3967.2  Rx         0611  8  06 6C 00 09 E1 E1 E3 E4 
  1266)      3969.3  Rx         0210  7  FF FF 30 20 90 00 96 
  1267)      3969.5  Rx         04B0  8  27 10 27 10 27 10 27 10 
  1268)      3977.5  Rx         0495  2  7F 00 
  1269)      3983.3  Rx         0210  7  FF FF 30 20 90 00 97 
  1270)      3983.5  Rx         04B0  8  27 10 27 10 27 10 27 10 
  1271)      3988.3  Rx         0251  8  40 00 00 00 00 00 00 00 
  1272)      3994.7  Rx         0408  8  0F 02 82 10 80 2F 89 50 
  1273)      3995.3  Rx         040B  8  00 00 08 00 00 00 60 00 
  1274)      3997.5  Rx         0210  7  FF FF 30 20 90 00 98 
  1275)      3997.7  Rx         04B0  8  27 10 27 10 27 10 27 10 
  1276)      3998.0  Rx         0460  8  03 E0 00 00 00 00 00 00 
  1277)      3998.4  Rx         0265  8  FF F9 00 00 00 69 00 00 
  1278)      4001.2  Rx         0345  8  00 C0 00 00 00 00 00 00 
  1279)      4001.4  Rx         0344  4  FF 6C FF FF 
  1280)      4008.2  Rx         0310  3  02 00 06 
  1281)      4011.4  Rx         0210  7  FF FF 30 20 90 00 99 
  1282)      4011.6  Rx         04B0  8  27 10 27 10 27 10 27 10 
  1283)      4025.4  Rx         0210  7  FF FF 30 20 90 00 9A 
  1284)      4025.6  Rx         04B0  8  27 10 27 10 27 10 27 10 
  1285)      4028.3  Rx         0359  8  18 00 00 86 00 00 00 00 
  1286)      4039.3  Rx         0210  7  FF FF 30 20 90 00 9B 
  1287)      4039.6  Rx         04B0  8  27 10 27 10 27 10 27 10 
  1288)      4044.6  Rx         0045  8  40 00 82 00 00 00 00 00 
  1289)      4048.5  Rx         0250  8  08 00 40 00 00 00 00 00 
  1290)      4049.0  Rx         0441  8  00 00 00 00 00 00 00 00 
  1291)      4053.4  Rx         0210  7  FF FF 30 20 90 00 9C 
  1292)      4053.6  Rx         04B0  8  27 10 27 10 27 10 27 10 
  1293)      4067.4  Rx         0210  7  FF FF 30 20 90 00 9D 
  1294)      4067.6  Rx         04B0  8  27 10 27 10 27 10 27 10 
  1295)      4068.5  Rx         0442  8  00 00 00 00 00 00 00 00 
  1296)      4069.0  Rx         0443  8  00 00 00 00 00 00 00 00 
  1297)      4069.5  Rx         0444  8  00 00 00 00 00 00 00 00 
  1298)      4077.4  Rx         0495  2  7F 00 
  1299)      4081.4  Rx         0210  7  FF FF 30 20 90 00 9E 
  1300)      4081.7  Rx         04B0  8  27 10 27 10 27 10 27 10 
  1301)      4088.4  Rx         0251  8  40 00 00 00 00 00 00 00 
  1302)      4092.0  Rx         0301  8  00 0F 0F 1B 00 64 01 18 
  1303)      4092.3  Rx         0302  8  00 00 00 00 09 54 08 A2 
  1304)      4092.5  Rx         0304  8  00 00 00 00 01 22 00 F0 
  1305)      4092.8  Rx         0305  8  00 00 01 40 00 00 00 80 
  1306)      4093.0  Rx         0303  8  0F 59 01 F4 06 00 00 00 
  1307)      4095.4  Rx         0210  7  FF FF 30 20 90 00 9F 
  1308)      4095.6  Rx         04B0  8  27 10 27 10 27 10 27 10 
  1309)      4097.5  Rx         0023  1  40 
  1310)      4097.8  Rx         0460  8  03 E0 00 00 00 00 00 00 
  1311)      4098.3  Rx         0264  8  01 00 00 40 01 01 20 00 
  1312)      4108.4  Rx         0265  8  FF F9 00 00 00 69 00 00 
  1313)      4109.4  Rx         0210  7  FF FF 30 20 90 00 A0 
  1314)      4109.6  Rx         04B0  8  27 10 27 10 27 10 27 10 
  1315)      4118.3  Rx         0311  2  00 00 
  1316)      4123.4  Rx         0210  7  FF FF 30 20 90 00 A1 
  1317)      4123.7  Rx         04B0  8  27 10 27 10 27 10 27 10 
  1318)      4137.4  Rx         0210  7  FF FF 30 20 90 00 A2 
  1319)      4137.6  Rx         04B0  8  27 10 27 10 27 10 27 10 
  1320)      4144.4  Rx         0045  8  40 00 82 00 00 00 00 00 
  1321)      4146.6  Rx         0045  8  40 00 82 00 00 00 00 00 
  1322)      4148.4  Rx         0250  8  08 00 40 00 00 00 00 00 
  1323)      4148.9  Rx         0440  8  12 70 09 05 40 00 00 00 
  1324)      4149.4  Rx         03A0  8  00 00 03 84 00 00 00 03 
  1325)      4150.5  Rx         0441  8  00 00 00 00 00 00 00 00 
  1326)      4151.4  Rx         0210  7  FF FF 30 20 90 00 A3 
  1327)      4151.6  Rx         04B0  8  27 10 27 10 27 10 27 10 
  1328)      4165.4  Rx         0210  7  FF FF 30 20 90 00 A4 
  1329)      4165.7  Rx         04B0  8  27 10 27 10 27 10 27 10 
  1330)      4167.0  Rx         0610  8  06 6F 06 66 1D 18 00 00 
  1331)      4167.3  Rx         0300  8  02 04 27 00 00 3F 01 00 
  1332)      4167.6  Rx         0306  8  00 00 00 00 00 00 00 00 
  1333)      4167.8  Rx         0611  8  06 6C 00 09 E1 E1 E3 E4 
  1334)      4168.0  Rx         0722  8  00 00 00 00 20 00 00 00 
  1335)      4168.3  Rx         0723  8  00 00 00 00 20 00 00 00 
  1336)      4168.5  Rx         0721  8  00 00 00 00 00 00 00 00 
  1337)      4177.4  Rx         0495  2  7F 00 
  1338)      4179.4  Rx         0210  7  FF FF 30 20 90 00 A5 
  1339)      4179.7  Rx         04B0  8  27 10 27 10 27 10 27 10 
  1340)      4188.3  Rx         0251  8  40 00 00 00 00 00 00 00 
  1341)      4193.5  Rx         0210  7  FF FF 30 20 90 00 A6 
  1342)      4193.7  Rx         04B0  8  27 10 27 10 27 10 27 10 
  1343)      4197.6  Rx         0460  8  03 E0 00 00 00 00 00 00 
  1344)      4198.4  Rx         0265  8  FF F9 00 00 00 69 00 00 
  1345)      4201.3  Rx         0345  8  00 C0 00 00 00 00 00 00 
  1346)      4201.4  Rx         0344  4  FF 6C FF FF 
  1347)      4207.5  Rx         0210  7  FF FF 30 20 90 00 A7 
  1348)      4207.7  Rx         04B0  8  27 10 27 10 27 10 27 10 
  1349)      4208.3  Rx         0310  3  02 00 06 
  1350)      4221.4  Rx         0210  7  FF FF 30 20 90 00 A8 
  1351)      4221.7  Rx         04B0  8  27 10 27 10 27 10 27 10 
  1352)      4224.5  Rx         0409  8  18 00 00 00 00 00 00 00 
  1353)      4228.4  Rx         0359  8  18 00 00 86 00 00 00 00 
  1354)      4235.5  Rx         0210  7  FF FF 30 20 90 00 A9 
  1355)      4235.7  Rx         04B0  8  27 10 27 10 27 10 27 10 
  1356)      4244.4  Rx         0045  8  40 00 82 00 00 00 00 00 
  1357)      4248.7  Rx         0250  8  08 00 40 00 00 00 00 00 
  1358)      4249.5  Rx         0210  7  FF FF 30 20 90 00 AA 
  1359)      4249.7  Rx         04B0  8  27 10 27 10 27 10 27 10 
  1360)      4263.5  Rx         0210  7  FF FF 30 20 90 00 AB 
  1361)      4263.7  Rx         04B0  8  27 10 27 10 27 10 27 10 
  1362)      4268.6  Rx         0442  8  00 00 00 00 00 00 00 00 
  1363)      4269.1  Rx         0443  8  00 00 00 00 00 00 00 00 
  1364)      4269.7  Rx         0444  8  00 00 00 00 00 00 00 00 
  1365)      4277.4  Rx         0495  2  7F 00 
  1366)      4277.6  Rx         0210  7  FF FF 30 20 90 00 AC 
  1367)      4277.8  Rx         04B0  8  27 10 27 10 27 10 27 10 
  1368)      4288.4  Rx         0251  8  40 00 00 00 00 00 00 00 
  1369)      4291.5  Rx         0210  7  FF FF 30 20 90 00 AD 
  1370)      4291.7  Rx         04B0  8  27 10 27 10 27 10 27 10 
  1371)      4292.1  Rx         0301  8  00 0E 0F 1B 00 64 01 18 
  1372)      4292.3  Rx         0302  8  00 00 00 00 09 54 08 A2 
  1373)      4292.6  Rx         0304  8  00 00 00 00 01 22 00 F0 
  1374)      4292.8  Rx         0305  8  00 00 01 40 00 00 00 80 
  1375)      4293.0  Rx         0303  8  0F 59 01 F4 06 00 00 00 
  1376)      4297.0  Rx         0023  1  40 
  1377)      4297.3  Rx         0460  8  03 E0 00 00 00 00 00 00 
  1378)      4298.4  Rx         0263  6  05 00 45 88 9A 00 
  1379)      4305.5  Rx         0210  7  FF FF 30 20 90 00 AE 
  1380)      4305.8  Rx         04B0  8  27 10 27 10 27 10 27 10 
  1381)      4308.4  Rx         0264  8  01 00 00 40 01 01 20 00 
  1382)      4309.1  Rx         03A1  8  80 38 00 00 45 00 EB 88 
  1383)      4318.5  Rx         0265  8  FF F9 00 00 00 69 00 00 
  1384)      4319.5  Rx         0210  7  FF FF 30 20 90 00 AF 
  1385)      4319.8  Rx         04B0  8  27 10 27 10 27 10 27 10 
  1386)      4328.5  Rx         0311  2  00 00 
  1387)      4333.5  Rx         0210  7  FF FF 30 20 90 00 B0 
  1388)      4333.7  Rx         04B0  8  27 10 27 10 27 10 27 10 
  1389)      4344.4  Rx         0045  8  40 00 82 00 00 00 00 00 
  1390)      4347.5  Rx         0210  7  FF FF 30 20 90 00 B1 
  1391)      4347.8  Rx         04B0  8  27 10 27 10 27 10 27 10 
  1392)      4348.8  Rx         0250  8  08 00 40 00 00 00 00 00 
  1393)      4349.4  Rx         0440  8  12 70 09 05 40 00 00 00 
  1394)      4349.9  Rx         0441  8  00 00 00 00 00 00 00 00 
  1395)      4361.6  Rx         0210  7  FF FF 30 20 90 00 B2 
  1396)      4361.8  Rx         04B0  8  27 10 27 10 27 10 27 10 
  1397)      4367.1  Rx         0610  8  06 6F 06 66 1D 18 00 00 
  1398)      4367.4  Rx         0611  8  06 6C 00 09 E1 E1 E3 E4 
  1399)      4375.6  Rx         0210  7  FF FF 30 20 90 00 B3 
  1400)      4375.8  Rx         04B0  8  27 10 27 10 27 10 27 10 
  1401)      4377.3  Rx         0495  2  7F 00 
  1402)      4388.5  Rx         0251  8  40 00 00 00 00 00 00 00 
  1403)      4389.5  Rx         0210  7  FF FF 30 20 90 00 B4 
  1404)      4389.8  Rx         04B0  8  27 10 27 10 27 10 27 10 
  1405)      4396.9  Rx         0460  8  03 E0 00 00 00 00 00 00 
  1406)      4398.4  Rx         0265  8  FF F9 00 00 00 69 00 00 
  1407)      4401.2  Rx         0345  8  00 C0 00 00 00 00 00 00 
  1408)      4401.4  Rx         0344  4  FF 6C FF FF 
  1409)      4403.5  Rx         0210  7  FF FF 30 20 90 00 B5 
  1410)      4403.8  Rx         04B0  8  27 10 27 10 27 10 27 10 
  1411)      4408.4  Rx         0310  3  02 00 06 
  1412)      4417.8  Rx         0210  7  FF FF 30 20 90 00 B6 
  1413)      4418.1  Rx         04B0  8  27 10 27 10 27 10 27 10 
  1414)      4428.4  Rx         0359  8  18 00 00 86 00 00 00 00 
  1415)      4431.6  Rx         0210  7  FF FF 30 20 90 00 B7 
  1416)      4431.9  Rx         04B0  8  27 10 27 10 27 10 27 10 
  1417)      4444.2  Rx         0045  8  40 00 82 00 00 00 00 00 
  1418)      4445.6  Rx         0210  7  FF FF 30 20 90 00 B8 
  1419)      4445.8  Rx         04B0  8  27 10 27 10 27 10 27 10 
  1420)      4449.2  Rx         0250  8  08 00 40 00 00 00 00 00 
  1421)      4459.6  Rx         0210  7  FF FF 30 20 90 00 B9 
  1422)      4459.8  Rx         04B0  8  27 10 27 10 27 10 27 10 
  1423)      4469.0  Rx         0442  8  00 00 00 00 00 00 00 00 
  1424)      4469.5  Rx         0443  8  00 00 00 00 00 00 00 00 
  1425)      4470.0  Rx         0444  8  00 00 00 00 00 00 00 00 
  1426)      4473.9  Rx         0210  7  FF FF 30 20 90 00 BA 
  1427)      4474.1  Rx         04B0  8  27 10 27 10 27 10 27 10 
  1428)      4477.3  Rx         0495  2  7F 00 
  1429)      4487.6  Rx         0210  7  FF FF 30 20 90 00 BB 
  1430)      4487.9  Rx         04B0  8  27 10 27 10 27 10 27 10 
  1431)      4488.4  Rx         0251  8  40 00 00 00 00 00 00 00 
  1432)      4492.1  Rx         0301  8  00 0E 0F 1C 00 64 01 18 
  1433)      4492.3  Rx         0302  8  00 00 00 00 09 54 08 A2 
  1434)      4492.5  Rx         0304  8  00 00 00 00 01 22 00 F0 
  1435)      4492.8  Rx         0305  8  00 00 01 40 00 00 00 80 
  1436)      4493.1  Rx         0303  8  0F 59 01 F4 06 00 00 00 
  1437)      4494.3  Rx         0408  8  0F 02 82 10 80 2F 89 50 
  1438)      4494.8  Rx         040B  8  00 00 08 00 00 00 60 00 
  1439)      4496.6  Rx         0023  1  40 
  1440)      4497.1  Rx         0460  8  03 E0 00 00 00 00 00 00 
  1441)      4498.5  Rx         0264  8  01 00 00 40 01 01 20 00 
  1442)      4502.0  Rx         0210  7  FF FF 30 20 90 00 BC 
  1443)      4502.3  Rx         04B0  8  27 10 27 10 27 10 27 10 
  1444)      4508.5  Rx         0265  8  FF F9 00 00 00 69 00 00 
  1445)      4515.6  Rx         0210  7  FF FF 30 20 90 00 BD 
  1446)      4516.1  Rx         04B0  8  27 10 27 10 27 10 27 10 
  1447)      4518.3  Rx         0311  2  00 00 
  1448)      4529.6  Rx         0210  7  FF FF 30 20 90 00 BE 
  1449)      4529.9  Rx         04B0  8  27 10 27 10 27 10 27 10 
  1450)      4543.7  Rx         0210  7  FF FF 30 20 90 00 BF 
  1451)      4543.9  Rx         04B0  8  27 10 27 10 27 10 27 10 
  1452)      4544.3  Rx         0045  8  40 00 82 00 00 00 00 00 
  1453)      4546.4  Rx         0045  8  40 00 82 00 00 00 00 00 
  1454)      4549.0  Rx         0250  8  08 00 40 00 00 00 00 00 
  1455)      4549.5  Rx         0440  8  12 70 09 05 40 00 00 00 
  1456)      4550.2  Rx         0441  8  00 00 00 00 00 00 00 00 
  1457)      4557.7  Rx         0210  7  FF FF 30 20 90 00 C0 
  1458)      4557.9  Rx         04B0  8  27 10 27 10 27 10 27 10 
  1459)      4567.1  Rx         0610  8  06 6F 06 66 1D 18 00 00 
  1460)      4567.3  Rx         0611  8  06 6C 00 09 E1 E1 E3 E4 
  1461)      4571.6  Rx         0210  7  FF FF 30 20 90 00 C1 
  1462)      4571.9  Rx         04B0  8  27 10 27 10 27 10 27 10 
  1463)      4577.3  Rx         0495  2  7F 00 
  1464)      4585.7  Rx         0210  7  FF FF 30 20 90 00 C2 
  1465)      4586.1  Rx         04B0  8  27 10 27 10 27 10 27 10 
  1466)      4588.5  Rx         0251  8  40 00 00 00 00 00 00 00 
  1467)      4596.6  Rx         0460  8  03 E0 00 00 00 00 00 00 
  1468)      4598.6  Rx         0265  8  FF F9 00 00 00 69 00 00 
  1469)      4599.7  Rx         0210  7  FF FF 30 20 90 00 C3 
  1470)      4599.9  Rx         04B0  8  27 10 27 10 27 10 27 10 
  1471)      4601.3  Rx         0345  8  00 C0 00 00 00 00 00 00 
  1472)      4601.4  Rx         0344  4  FF 6C FF FF 
  1473)      4608.3  Rx         0310  3  02 00 06 
  1474)      4613.7  Rx         0210  7  FF FF 30 20 90 00 C4 
  1475)      4613.9  Rx         04B0  8  27 10 27 10 27 10 27 10 
  1476)      4627.7  Rx         0210  7  FF FF 30 20 90 00 C5 
  1477)      4628.0  Rx         04B0  8  27 10 27 10 27 10 27 10 
  1478)      4628.6  Rx         0359  8  18 00 00 86 00 00 00 00 
  1479)      4642.0  Rx         0210  7  FF FF 30 20 90 00 C6 
  1480)      4642.2  Rx         04B0  8  27 10 27 10 27 10 27 10 
  1481)      4644.1  Rx         0045  8  40 00 82 00 00 00 00 00 
  1482)      4649.4  Rx         0250  8  08 00 40 00 00 00 00 00 
  1483)      4649.9  Rx         03A0  8  00 00 03 84 00 00 00 03 
  1484)      4650.7  Rx         0441  8  00 00 00 00 00 00 00 00 
  1485)      4656.0  Rx         0210  7  FF FF 30 20 90 00 C7 
  1486)      4656.2  Rx         04B0  8  27 10 27 10 27 10 27 10 
  1487)      4669.3  Rx         0442  8  00 00 00 00 00 00 00 00 
  1488)      4669.6  Rx         0210  7  FF FF 30 20 90 00 C8 
  1489)      4669.9  Rx         0443  8  00 00 00 00 00 00 00 00 
  1490)      4670.3  Rx         04B0  8  27 10 27 10 27 10 27 10 
  1491)      4670.6  Rx         0444  8  00 00 00 00 00 00 00 00 
  1492)      4677.1  Rx         0495  2  7F 00 
  1493)      4683.6  Rx         0210  7  FF FF 30 20 90 00 C9 
  1494)      4683.8  Rx         04B0  8  27 10 27 10 27 10 27 10 
  1495)      4688.5  Rx         0251  8  40 00 00 00 00 00 00 00 
  1496)      4692.1  Rx         0301  8  00 0E 0F 1B 00 64 01 18 
  1497)      4692.4  Rx         0302  8  00 00 00 00 09 54 08 A2 
  1498)      4692.6  Rx         0304  8  00 00 00 00 01 22 00 F0 
  1499)      4692.8  Rx         0305  8  00 00 01 40 00 00 00 80 
  1500)      4693.1  Rx         0303  8  0F 59 01 F4 06 00 00 00 
  1501)      4696.1  Rx         0023  1  40 
  1502)      4696.5  Rx         0460  8  03 E0 00 00 00 00 00 00 
  1503)      4697.6  Rx         0210  7  FF FF 30 20 90 00 CA 
  1504)      4697.9  Rx         04B0  8  27 10 27 10 27 10 27 10 
  1505)      4698.4  Rx         0264  8  01 00 00 40 01 01 20 00 
  1506)      4708.5  Rx         0265  8  FF F9 00 00 00 69 00 00 
  1507)      4711.6  Rx         0210  7  FF FF 30 20 90 00 CB 
  1508)      4711.9  Rx         04B0  8  27 10 27 10 27 10 27 10 
  1509)      4718.4  Rx         0311  2  00 00 
  1510)      4723.9  Rx         0409  8  18 00 00 00 00 00 00 00 
  1511)      4725.7  Rx         0210  7  FF FF 30 20 90 00 CC 
  1512)      4725.9  Rx         04B0  8  27 10 27 10 27 10 27 10 
  1513)      4739.7  Rx         0210  7  FF FF 30 20 90 00 CD 
  1514)      4739.9  Rx         04B0  8  27 10 27 10 27 10 27 10 
  1515)      4743.9  Rx         0045  8  40 00 82 00 00 00 00 00 
  1516)      4749.5  Rx         0250  8  08 00 40 00 00 00 00 00 
  1517)      4750.0  Rx         0440  8  12 70 09 05 40 00 00 00 
  1518)      4753.6  Rx         0210  7  FF FF 30 20 90 00 CE 
  1519)      4753.9  Rx         04B0  8  27 10 27 10 27 10 27 10 
  1520)      4767.0  Rx         0610  8  06 6F 06 66 1D 18 00 00 
  1521)      4767.2  Rx         0611  8  06 6C 00 09 E1 E1 E3 E4 
  1522)      4767.7  Rx         0210  7  FF FF 30 20 90 00 CF 
  1523)      4767.9  Rx         04B0  8  27 10 27 10 27 10 27 10 
  1524)      4777.1  Rx         0495  2  7F 00 
  1525)      4781.8  Rx         0210  7  FF FF 30 20 90 00 D0 
  1526)      4782.1  Rx         04B0  8  27 10 27 10 27 10 27 10 
  1527)      4788.4  Rx         0251  8  40 00 00 00 00 00 00 00 
  1528)      4795.7  Rx         0210  7  FF FF 30 20 90 00 D1 
  1529)      4795.9  Rx         04B0  8  27 10 27 10 27 10 27 10 
  1530)      4796.2  Rx         0460  8  03 E0 00 00 00 00 00 00 
  1531)      4798.5  Rx         0263  6  05 00 45 88 9B 00 
  1532)      4802.4  Rx         0345  8  00 C0 00 00 00 00 00 00 
  1533)      4802.6  Rx         0344  4  FF 6C FF FF 
  1534)      4808.5  Rx         0265  8  FF F9 00 00 00 69 00 00 
  1535)      4809.5  Rx         03A1  8  80 38 00 00 45 00 EB 88 
  1536)      4809.8  Rx         0210  7  FF FF 30 20 90 00 D2 
  1537)      4810.0  Rx         04B0  8  27 10 27 10 27 10 27 10 
  1538)      4818.5  Rx         0310  3  02 00 06 
  1539)      4823.7  Rx         0210  7  FF FF 30 20 90 00 D3 
  1540)      4823.9  Rx         04B0  8  27 10 27 10 27 10 27 10 
